top.u_connector.u_connector.clk
top.u_connector.u_connector.rst
top.u_connector.u_connector.s00_axi_awid
top.u_connector.u_connector.s00_axi_awaddr
top.u_connector.u_connector.s00_axi_awlen
top.u_connector.u_connector.s00_axi_awsize
top.u_connector.u_connector.s00_axi_awburst
top.u_connector.u_connector.s00_axi_awlock
top.u_connector.u_connector.s00_axi_awcache
top.u_connector.u_connector.s00_axi_awprot
top.u_connector.u_connector.s00_axi_awqos
top.u_connector.u_connector.s00_axi_awuser
top.u_connector.u_connector.s00_axi_awvalid
top.u_connector.u_connector.s00_axi_awready
top.u_connector.u_connector.s00_axi_wdata
top.u_connector.u_connector.s00_axi_wstrb
top.u_connector.u_connector.s00_axi_wlast
top.u_connector.u_connector.s00_axi_wuser
top.u_connector.u_connector.s00_axi_wvalid
top.u_connector.u_connector.s00_axi_wready
top.u_connector.u_connector.s00_axi_bid
top.u_connector.u_connector.s00_axi_bresp
top.u_connector.u_connector.s00_axi_buser
top.u_connector.u_connector.s00_axi_bvalid
top.u_connector.u_connector.s00_axi_bready
top.u_connector.u_connector.s00_axi_arid
top.u_connector.u_connector.s00_axi_araddr
top.u_connector.u_connector.s00_axi_arlen
top.u_connector.u_connector.s00_axi_arsize
top.u_connector.u_connector.s00_axi_arburst
top.u_connector.u_connector.s00_axi_arlock
top.u_connector.u_connector.s00_axi_arcache
top.u_connector.u_connector.s00_axi_arprot
top.u_connector.u_connector.s00_axi_arqos
top.u_connector.u_connector.s00_axi_aruser
top.u_connector.u_connector.s00_axi_arvalid
top.u_connector.u_connector.s00_axi_arready
top.u_connector.u_connector.s00_axi_rid
top.u_connector.u_connector.s00_axi_rdata
top.u_connector.u_connector.s00_axi_rresp
top.u_connector.u_connector.s00_axi_rlast
top.u_connector.u_connector.s00_axi_ruser
top.u_connector.u_connector.s00_axi_rvalid
top.u_connector.u_connector.s00_axi_rready
top.u_connector.u_connector.s01_axi_awid
top.u_connector.u_connector.s01_axi_awaddr
top.u_connector.u_connector.s01_axi_awlen
top.u_connector.u_connector.s01_axi_awsize
top.u_connector.u_connector.s01_axi_awburst
top.u_connector.u_connector.s01_axi_awlock
top.u_connector.u_connector.s01_axi_awcache
top.u_connector.u_connector.s01_axi_awprot
top.u_connector.u_connector.s01_axi_awqos
top.u_connector.u_connector.s01_axi_awuser
top.u_connector.u_connector.s01_axi_awvalid
top.u_connector.u_connector.s01_axi_awready
top.u_connector.u_connector.s01_axi_wdata
top.u_connector.u_connector.s01_axi_wstrb
top.u_connector.u_connector.s01_axi_wlast
top.u_connector.u_connector.s01_axi_wuser
top.u_connector.u_connector.s01_axi_wvalid
top.u_connector.u_connector.s01_axi_wready
top.u_connector.u_connector.s01_axi_bid
top.u_connector.u_connector.s01_axi_bresp
top.u_connector.u_connector.s01_axi_buser
top.u_connector.u_connector.s01_axi_bvalid
top.u_connector.u_connector.s01_axi_bready
top.u_connector.u_connector.s01_axi_arid
top.u_connector.u_connector.s01_axi_araddr
top.u_connector.u_connector.s01_axi_arlen
top.u_connector.u_connector.s01_axi_arsize
top.u_connector.u_connector.s01_axi_arburst
top.u_connector.u_connector.s01_axi_arlock
top.u_connector.u_connector.s01_axi_arcache
top.u_connector.u_connector.s01_axi_arprot
top.u_connector.u_connector.s01_axi_arqos
top.u_connector.u_connector.s01_axi_aruser
top.u_connector.u_connector.s01_axi_arvalid
top.u_connector.u_connector.s01_axi_arready
top.u_connector.u_connector.s01_axi_rid
top.u_connector.u_connector.s01_axi_rdata
top.u_connector.u_connector.s01_axi_rresp
top.u_connector.u_connector.s01_axi_rlast
top.u_connector.u_connector.s01_axi_ruser
top.u_connector.u_connector.s01_axi_rvalid
top.u_connector.u_connector.s01_axi_rready
top.u_connector.u_connector.s02_axi_awid
top.u_connector.u_connector.s02_axi_awaddr
top.u_connector.u_connector.s02_axi_awlen
top.u_connector.u_connector.s02_axi_awsize
top.u_connector.u_connector.s02_axi_awburst
top.u_connector.u_connector.s02_axi_awlock
top.u_connector.u_connector.s02_axi_awcache
top.u_connector.u_connector.s02_axi_awprot
top.u_connector.u_connector.s02_axi_awqos
top.u_connector.u_connector.s02_axi_awuser
top.u_connector.u_connector.s02_axi_awvalid
top.u_connector.u_connector.s02_axi_awready
top.u_connector.u_connector.s02_axi_wdata
top.u_connector.u_connector.s02_axi_wstrb
top.u_connector.u_connector.s02_axi_wlast
top.u_connector.u_connector.s02_axi_wuser
top.u_connector.u_connector.s02_axi_wvalid
top.u_connector.u_connector.s02_axi_wready
top.u_connector.u_connector.s02_axi_bid
top.u_connector.u_connector.s02_axi_bresp
top.u_connector.u_connector.s02_axi_buser
top.u_connector.u_connector.s02_axi_bvalid
top.u_connector.u_connector.s02_axi_bready
top.u_connector.u_connector.s02_axi_arid
top.u_connector.u_connector.s02_axi_araddr
top.u_connector.u_connector.s02_axi_arlen
top.u_connector.u_connector.s02_axi_arsize
top.u_connector.u_connector.s02_axi_arburst
top.u_connector.u_connector.s02_axi_arlock
top.u_connector.u_connector.s02_axi_arcache
top.u_connector.u_connector.s02_axi_arprot
top.u_connector.u_connector.s02_axi_arqos
top.u_connector.u_connector.s02_axi_aruser
top.u_connector.u_connector.s02_axi_arvalid
top.u_connector.u_connector.s02_axi_arready
top.u_connector.u_connector.s02_axi_rid
top.u_connector.u_connector.s02_axi_rdata
top.u_connector.u_connector.s02_axi_rresp
top.u_connector.u_connector.s02_axi_rlast
top.u_connector.u_connector.s02_axi_ruser
top.u_connector.u_connector.s02_axi_rvalid
top.u_connector.u_connector.s02_axi_rready
top.u_connector.u_connector.m00_axi_awid
top.u_connector.u_connector.m00_axi_awaddr
top.u_connector.u_connector.m00_axi_awlen
top.u_connector.u_connector.m00_axi_awsize
top.u_connector.u_connector.m00_axi_awburst
top.u_connector.u_connector.m00_axi_awlock
top.u_connector.u_connector.m00_axi_awcache
top.u_connector.u_connector.m00_axi_awprot
top.u_connector.u_connector.m00_axi_awqos
top.u_connector.u_connector.m00_axi_awregion
top.u_connector.u_connector.m00_axi_awuser
top.u_connector.u_connector.m00_axi_awvalid
top.u_connector.u_connector.m00_axi_awready
top.u_connector.u_connector.m00_axi_wdata
top.u_connector.u_connector.m00_axi_wstrb
top.u_connector.u_connector.m00_axi_wlast
top.u_connector.u_connector.m00_axi_wuser
top.u_connector.u_connector.m00_axi_wvalid
top.u_connector.u_connector.m00_axi_wready
top.u_connector.u_connector.m00_axi_bid
top.u_connector.u_connector.m00_axi_bresp
top.u_connector.u_connector.m00_axi_buser
top.u_connector.u_connector.m00_axi_bvalid
top.u_connector.u_connector.m00_axi_bready
top.u_connector.u_connector.m00_axi_arid
top.u_connector.u_connector.m00_axi_araddr
top.u_connector.u_connector.m00_axi_arlen
top.u_connector.u_connector.m00_axi_arsize
top.u_connector.u_connector.m00_axi_arburst
top.u_connector.u_connector.m00_axi_arlock
top.u_connector.u_connector.m00_axi_arcache
top.u_connector.u_connector.m00_axi_arprot
top.u_connector.u_connector.m00_axi_arqos
top.u_connector.u_connector.m00_axi_arregion
top.u_connector.u_connector.m00_axi_aruser
top.u_connector.u_connector.m00_axi_arvalid
top.u_connector.u_connector.m00_axi_arready
top.u_connector.u_connector.m00_axi_rid
top.u_connector.u_connector.m00_axi_rdata
top.u_connector.u_connector.m00_axi_rresp
top.u_connector.u_connector.m00_axi_rlast
top.u_connector.u_connector.m00_axi_ruser
top.u_connector.u_connector.m00_axi_rvalid
top.u_connector.u_connector.m00_axi_rready
top.u_connector.u_connector.m01_axi_awid
top.u_connector.u_connector.m01_axi_awaddr
top.u_connector.u_connector.m01_axi_awlen
top.u_connector.u_connector.m01_axi_awsize
top.u_connector.u_connector.m01_axi_awburst
top.u_connector.u_connector.m01_axi_awlock
top.u_connector.u_connector.m01_axi_awcache
top.u_connector.u_connector.m01_axi_awprot
top.u_connector.u_connector.m01_axi_awqos
top.u_connector.u_connector.m01_axi_awregion
top.u_connector.u_connector.m01_axi_awuser
top.u_connector.u_connector.m01_axi_awvalid
top.u_connector.u_connector.m01_axi_awready
top.u_connector.u_connector.m01_axi_wdata
top.u_connector.u_connector.m01_axi_wstrb
top.u_connector.u_connector.m01_axi_wlast
top.u_connector.u_connector.m01_axi_wuser
top.u_connector.u_connector.m01_axi_wvalid
top.u_connector.u_connector.m01_axi_wready
top.u_connector.u_connector.m01_axi_bid
top.u_connector.u_connector.m01_axi_bresp
top.u_connector.u_connector.m01_axi_buser
top.u_connector.u_connector.m01_axi_bvalid
top.u_connector.u_connector.m01_axi_bready
top.u_connector.u_connector.m01_axi_arid
top.u_connector.u_connector.m01_axi_araddr
top.u_connector.u_connector.m01_axi_arlen
top.u_connector.u_connector.m01_axi_arsize
top.u_connector.u_connector.m01_axi_arburst
top.u_connector.u_connector.m01_axi_arlock
top.u_connector.u_connector.m01_axi_arcache
top.u_connector.u_connector.m01_axi_arprot
top.u_connector.u_connector.m01_axi_arqos
top.u_connector.u_connector.m01_axi_arregion
top.u_connector.u_connector.m01_axi_aruser
top.u_connector.u_connector.m01_axi_arvalid
top.u_connector.u_connector.m01_axi_arready
top.u_connector.u_connector.m01_axi_rid
top.u_connector.u_connector.m01_axi_rdata
top.u_connector.u_connector.m01_axi_rresp
top.u_connector.u_connector.m01_axi_rlast
top.u_connector.u_connector.m01_axi_ruser
top.u_connector.u_connector.m01_axi_rvalid
top.u_connector.u_connector.m01_axi_rready
top.u_connector.u_connector.m02_axi_awid
top.u_connector.u_connector.m02_axi_awaddr
top.u_connector.u_connector.m02_axi_awlen
top.u_connector.u_connector.m02_axi_awsize
top.u_connector.u_connector.m02_axi_awburst
top.u_connector.u_connector.m02_axi_awlock
top.u_connector.u_connector.m02_axi_awcache
top.u_connector.u_connector.m02_axi_awprot
top.u_connector.u_connector.m02_axi_awqos
top.u_connector.u_connector.m02_axi_awregion
top.u_connector.u_connector.m02_axi_awuser
top.u_connector.u_connector.m02_axi_awvalid
top.u_connector.u_connector.m02_axi_awready
top.u_connector.u_connector.m02_axi_wdata
top.u_connector.u_connector.m02_axi_wstrb
top.u_connector.u_connector.m02_axi_wlast
top.u_connector.u_connector.m02_axi_wuser
top.u_connector.u_connector.m02_axi_wvalid
top.u_connector.u_connector.m02_axi_wready
top.u_connector.u_connector.m02_axi_bid
top.u_connector.u_connector.m02_axi_bresp
top.u_connector.u_connector.m02_axi_buser
top.u_connector.u_connector.m02_axi_bvalid
top.u_connector.u_connector.m02_axi_bready
top.u_connector.u_connector.m02_axi_arid
top.u_connector.u_connector.m02_axi_araddr
top.u_connector.u_connector.m02_axi_arlen
top.u_connector.u_connector.m02_axi_arsize
top.u_connector.u_connector.m02_axi_arburst
top.u_connector.u_connector.m02_axi_arlock
top.u_connector.u_connector.m02_axi_arcache
top.u_connector.u_connector.m02_axi_arprot
top.u_connector.u_connector.m02_axi_arqos
top.u_connector.u_connector.m02_axi_arregion
top.u_connector.u_connector.m02_axi_aruser
top.u_connector.u_connector.m02_axi_arvalid
top.u_connector.u_connector.m02_axi_arready
top.u_connector.u_connector.m02_axi_rid
top.u_connector.u_connector.m02_axi_rdata
top.u_connector.u_connector.m02_axi_rresp
top.u_connector.u_connector.m02_axi_rlast
top.u_connector.u_connector.m02_axi_ruser
top.u_connector.u_connector.m02_axi_rvalid
top.u_connector.u_connector.m02_axi_rready
top.u_connector.u_connector.m03_axi_awid
top.u_connector.u_connector.m03_axi_awaddr
top.u_connector.u_connector.m03_axi_awlen
top.u_connector.u_connector.m03_axi_awsize
top.u_connector.u_connector.m03_axi_awburst
top.u_connector.u_connector.m03_axi_awlock
top.u_connector.u_connector.m03_axi_awcache
top.u_connector.u_connector.m03_axi_awprot
top.u_connector.u_connector.m03_axi_awqos
top.u_connector.u_connector.m03_axi_awregion
top.u_connector.u_connector.m03_axi_awuser
top.u_connector.u_connector.m03_axi_awvalid
top.u_connector.u_connector.m03_axi_awready
top.u_connector.u_connector.m03_axi_wdata
top.u_connector.u_connector.m03_axi_wstrb
top.u_connector.u_connector.m03_axi_wlast
top.u_connector.u_connector.m03_axi_wuser
top.u_connector.u_connector.m03_axi_wvalid
top.u_connector.u_connector.m03_axi_wready
top.u_connector.u_connector.m03_axi_bid
top.u_connector.u_connector.m03_axi_bresp
top.u_connector.u_connector.m03_axi_buser
top.u_connector.u_connector.m03_axi_bvalid
top.u_connector.u_connector.m03_axi_bready
top.u_connector.u_connector.m03_axi_arid
top.u_connector.u_connector.m03_axi_araddr
top.u_connector.u_connector.m03_axi_arlen
top.u_connector.u_connector.m03_axi_arsize
top.u_connector.u_connector.m03_axi_arburst
top.u_connector.u_connector.m03_axi_arlock
top.u_connector.u_connector.m03_axi_arcache
top.u_connector.u_connector.m03_axi_arprot
top.u_connector.u_connector.m03_axi_arqos
top.u_connector.u_connector.m03_axi_arregion
top.u_connector.u_connector.m03_axi_aruser
top.u_connector.u_connector.m03_axi_arvalid
top.u_connector.u_connector.m03_axi_arready
top.u_connector.u_connector.m03_axi_rid
top.u_connector.u_connector.m03_axi_rdata
top.u_connector.u_connector.m03_axi_rresp
top.u_connector.u_connector.m03_axi_rlast
top.u_connector.u_connector.m03_axi_ruser
top.u_connector.u_connector.m03_axi_rvalid
top.u_connector.u_connector.m03_axi_rready
top.u_connector.u_connector.u_axi_tmr_voter_us.clk
top.u_connector.u_connector.u_axi_tmr_voter_us.rst
top.u_connector.u_connector.u_axi_tmr_voter_us.s00_axi_awid
top.u_connector.u_connector.u_axi_tmr_voter_us.s00_axi_awaddr
top.u_connector.u_connector.u_axi_tmr_voter_us.s00_axi_awlen
top.u_connector.u_connector.u_axi_tmr_voter_us.s00_axi_awsize
top.u_connector.u_connector.u_axi_tmr_voter_us.s00_axi_awburst
top.u_connector.u_connector.u_axi_tmr_voter_us.s00_axi_awlock
top.u_connector.u_connector.u_axi_tmr_voter_us.s00_axi_awcache
top.u_connector.u_connector.u_axi_tmr_voter_us.s00_axi_awprot
top.u_connector.u_connector.u_axi_tmr_voter_us.s00_axi_awqos
top.u_connector.u_connector.u_axi_tmr_voter_us.s00_axi_awuser
top.u_connector.u_connector.u_axi_tmr_voter_us.s00_axi_awvalid
top.u_connector.u_connector.u_axi_tmr_voter_us.s00_axi_awready
top.u_connector.u_connector.u_axi_tmr_voter_us.s00_axi_wdata
top.u_connector.u_connector.u_axi_tmr_voter_us.s00_axi_wstrb
top.u_connector.u_connector.u_axi_tmr_voter_us.s00_axi_wlast
top.u_connector.u_connector.u_axi_tmr_voter_us.s00_axi_wuser
top.u_connector.u_connector.u_axi_tmr_voter_us.s00_axi_wvalid
top.u_connector.u_connector.u_axi_tmr_voter_us.s00_axi_wready
top.u_connector.u_connector.u_axi_tmr_voter_us.s00_axi_bid
top.u_connector.u_connector.u_axi_tmr_voter_us.s00_axi_bresp
top.u_connector.u_connector.u_axi_tmr_voter_us.s00_axi_buser
top.u_connector.u_connector.u_axi_tmr_voter_us.s00_axi_bvalid
top.u_connector.u_connector.u_axi_tmr_voter_us.s00_axi_bready
top.u_connector.u_connector.u_axi_tmr_voter_us.s00_axi_arid
top.u_connector.u_connector.u_axi_tmr_voter_us.s00_axi_araddr
top.u_connector.u_connector.u_axi_tmr_voter_us.s00_axi_arlen
top.u_connector.u_connector.u_axi_tmr_voter_us.s00_axi_arsize
top.u_connector.u_connector.u_axi_tmr_voter_us.s00_axi_arburst
top.u_connector.u_connector.u_axi_tmr_voter_us.s00_axi_arlock
top.u_connector.u_connector.u_axi_tmr_voter_us.s00_axi_arcache
top.u_connector.u_connector.u_axi_tmr_voter_us.s00_axi_arprot
top.u_connector.u_connector.u_axi_tmr_voter_us.s00_axi_arqos
top.u_connector.u_connector.u_axi_tmr_voter_us.s00_axi_aruser
top.u_connector.u_connector.u_axi_tmr_voter_us.s00_axi_arvalid
top.u_connector.u_connector.u_axi_tmr_voter_us.s00_axi_arready
top.u_connector.u_connector.u_axi_tmr_voter_us.s00_axi_rid
top.u_connector.u_connector.u_axi_tmr_voter_us.s00_axi_rdata
top.u_connector.u_connector.u_axi_tmr_voter_us.s00_axi_rresp
top.u_connector.u_connector.u_axi_tmr_voter_us.s00_axi_rlast
top.u_connector.u_connector.u_axi_tmr_voter_us.s00_axi_ruser
top.u_connector.u_connector.u_axi_tmr_voter_us.s00_axi_rvalid
top.u_connector.u_connector.u_axi_tmr_voter_us.s00_axi_rready
top.u_connector.u_connector.u_axi_tmr_voter_us.s01_axi_awid
top.u_connector.u_connector.u_axi_tmr_voter_us.s01_axi_awaddr
top.u_connector.u_connector.u_axi_tmr_voter_us.s01_axi_awlen
top.u_connector.u_connector.u_axi_tmr_voter_us.s01_axi_awsize
top.u_connector.u_connector.u_axi_tmr_voter_us.s01_axi_awburst
top.u_connector.u_connector.u_axi_tmr_voter_us.s01_axi_awlock
top.u_connector.u_connector.u_axi_tmr_voter_us.s01_axi_awcache
top.u_connector.u_connector.u_axi_tmr_voter_us.s01_axi_awprot
top.u_connector.u_connector.u_axi_tmr_voter_us.s01_axi_awqos
top.u_connector.u_connector.u_axi_tmr_voter_us.s01_axi_awuser
top.u_connector.u_connector.u_axi_tmr_voter_us.s01_axi_awvalid
top.u_connector.u_connector.u_axi_tmr_voter_us.s01_axi_awready
top.u_connector.u_connector.u_axi_tmr_voter_us.s01_axi_wdata
top.u_connector.u_connector.u_axi_tmr_voter_us.s01_axi_wstrb
top.u_connector.u_connector.u_axi_tmr_voter_us.s01_axi_wlast
top.u_connector.u_connector.u_axi_tmr_voter_us.s01_axi_wuser
top.u_connector.u_connector.u_axi_tmr_voter_us.s01_axi_wvalid
top.u_connector.u_connector.u_axi_tmr_voter_us.s01_axi_wready
top.u_connector.u_connector.u_axi_tmr_voter_us.s01_axi_bid
top.u_connector.u_connector.u_axi_tmr_voter_us.s01_axi_bresp
top.u_connector.u_connector.u_axi_tmr_voter_us.s01_axi_buser
top.u_connector.u_connector.u_axi_tmr_voter_us.s01_axi_bvalid
top.u_connector.u_connector.u_axi_tmr_voter_us.s01_axi_bready
top.u_connector.u_connector.u_axi_tmr_voter_us.s01_axi_arid
top.u_connector.u_connector.u_axi_tmr_voter_us.s01_axi_araddr
top.u_connector.u_connector.u_axi_tmr_voter_us.s01_axi_arlen
top.u_connector.u_connector.u_axi_tmr_voter_us.s01_axi_arsize
top.u_connector.u_connector.u_axi_tmr_voter_us.s01_axi_arburst
top.u_connector.u_connector.u_axi_tmr_voter_us.s01_axi_arlock
top.u_connector.u_connector.u_axi_tmr_voter_us.s01_axi_arcache
top.u_connector.u_connector.u_axi_tmr_voter_us.s01_axi_arprot
top.u_connector.u_connector.u_axi_tmr_voter_us.s01_axi_arqos
top.u_connector.u_connector.u_axi_tmr_voter_us.s01_axi_aruser
top.u_connector.u_connector.u_axi_tmr_voter_us.s01_axi_arvalid
top.u_connector.u_connector.u_axi_tmr_voter_us.s01_axi_arready
top.u_connector.u_connector.u_axi_tmr_voter_us.s01_axi_rid
top.u_connector.u_connector.u_axi_tmr_voter_us.s01_axi_rdata
top.u_connector.u_connector.u_axi_tmr_voter_us.s01_axi_rresp
top.u_connector.u_connector.u_axi_tmr_voter_us.s01_axi_rlast
top.u_connector.u_connector.u_axi_tmr_voter_us.s01_axi_ruser
top.u_connector.u_connector.u_axi_tmr_voter_us.s01_axi_rvalid
top.u_connector.u_connector.u_axi_tmr_voter_us.s01_axi_rready
top.u_connector.u_connector.u_axi_tmr_voter_us.s02_axi_awid
top.u_connector.u_connector.u_axi_tmr_voter_us.s02_axi_awaddr
top.u_connector.u_connector.u_axi_tmr_voter_us.s02_axi_awlen
top.u_connector.u_connector.u_axi_tmr_voter_us.s02_axi_awsize
top.u_connector.u_connector.u_axi_tmr_voter_us.s02_axi_awburst
top.u_connector.u_connector.u_axi_tmr_voter_us.s02_axi_awlock
top.u_connector.u_connector.u_axi_tmr_voter_us.s02_axi_awcache
top.u_connector.u_connector.u_axi_tmr_voter_us.s02_axi_awprot
top.u_connector.u_connector.u_axi_tmr_voter_us.s02_axi_awqos
top.u_connector.u_connector.u_axi_tmr_voter_us.s02_axi_awuser
top.u_connector.u_connector.u_axi_tmr_voter_us.s02_axi_awvalid
top.u_connector.u_connector.u_axi_tmr_voter_us.s02_axi_awready
top.u_connector.u_connector.u_axi_tmr_voter_us.s02_axi_wdata
top.u_connector.u_connector.u_axi_tmr_voter_us.s02_axi_wstrb
top.u_connector.u_connector.u_axi_tmr_voter_us.s02_axi_wlast
top.u_connector.u_connector.u_axi_tmr_voter_us.s02_axi_wuser
top.u_connector.u_connector.u_axi_tmr_voter_us.s02_axi_wvalid
top.u_connector.u_connector.u_axi_tmr_voter_us.s02_axi_wready
top.u_connector.u_connector.u_axi_tmr_voter_us.s02_axi_bid
top.u_connector.u_connector.u_axi_tmr_voter_us.s02_axi_bresp
top.u_connector.u_connector.u_axi_tmr_voter_us.s02_axi_buser
top.u_connector.u_connector.u_axi_tmr_voter_us.s02_axi_bvalid
top.u_connector.u_connector.u_axi_tmr_voter_us.s02_axi_bready
top.u_connector.u_connector.u_axi_tmr_voter_us.s02_axi_arid
top.u_connector.u_connector.u_axi_tmr_voter_us.s02_axi_araddr
top.u_connector.u_connector.u_axi_tmr_voter_us.s02_axi_arlen
top.u_connector.u_connector.u_axi_tmr_voter_us.s02_axi_arsize
top.u_connector.u_connector.u_axi_tmr_voter_us.s02_axi_arburst
top.u_connector.u_connector.u_axi_tmr_voter_us.s02_axi_arlock
top.u_connector.u_connector.u_axi_tmr_voter_us.s02_axi_arcache
top.u_connector.u_connector.u_axi_tmr_voter_us.s02_axi_arprot
top.u_connector.u_connector.u_axi_tmr_voter_us.s02_axi_arqos
top.u_connector.u_connector.u_axi_tmr_voter_us.s02_axi_aruser
top.u_connector.u_connector.u_axi_tmr_voter_us.s02_axi_arvalid
top.u_connector.u_connector.u_axi_tmr_voter_us.s02_axi_arready
top.u_connector.u_connector.u_axi_tmr_voter_us.s02_axi_rid
top.u_connector.u_connector.u_axi_tmr_voter_us.s02_axi_rdata
top.u_connector.u_connector.u_axi_tmr_voter_us.s02_axi_rresp
top.u_connector.u_connector.u_axi_tmr_voter_us.s02_axi_rlast
top.u_connector.u_connector.u_axi_tmr_voter_us.s02_axi_ruser
top.u_connector.u_connector.u_axi_tmr_voter_us.s02_axi_rvalid
top.u_connector.u_connector.u_axi_tmr_voter_us.s02_axi_rready
top.u_connector.u_connector.u_axi_tmr_voter_us.m00_vu0_axi_awid
top.u_connector.u_connector.u_axi_tmr_voter_us.m00_vu0_axi_awaddr
top.u_connector.u_connector.u_axi_tmr_voter_us.m00_vu0_axi_awlen
top.u_connector.u_connector.u_axi_tmr_voter_us.m00_vu0_axi_awsize
top.u_connector.u_connector.u_axi_tmr_voter_us.m00_vu0_axi_awburst
top.u_connector.u_connector.u_axi_tmr_voter_us.m00_vu0_axi_awlock
top.u_connector.u_connector.u_axi_tmr_voter_us.m00_vu0_axi_awcache
top.u_connector.u_connector.u_axi_tmr_voter_us.m00_vu0_axi_awprot
top.u_connector.u_connector.u_axi_tmr_voter_us.m00_vu0_axi_awqos
top.u_connector.u_connector.u_axi_tmr_voter_us.m00_vu0_axi_awuser
top.u_connector.u_connector.u_axi_tmr_voter_us.m00_vu0_axi_awvalid
top.u_connector.u_connector.u_axi_tmr_voter_us.m00_vu0_axi_awready
top.u_connector.u_connector.u_axi_tmr_voter_us.m00_vu0_axi_wdata
top.u_connector.u_connector.u_axi_tmr_voter_us.m00_vu0_axi_wstrb
top.u_connector.u_connector.u_axi_tmr_voter_us.m00_vu0_axi_wlast
top.u_connector.u_connector.u_axi_tmr_voter_us.m00_vu0_axi_wuser
top.u_connector.u_connector.u_axi_tmr_voter_us.m00_vu0_axi_wvalid
top.u_connector.u_connector.u_axi_tmr_voter_us.m00_vu0_axi_wready
top.u_connector.u_connector.u_axi_tmr_voter_us.m00_vu0_axi_bid
top.u_connector.u_connector.u_axi_tmr_voter_us.m00_vu0_axi_bresp
top.u_connector.u_connector.u_axi_tmr_voter_us.m00_vu0_axi_buser
top.u_connector.u_connector.u_axi_tmr_voter_us.m00_vu0_axi_bvalid
top.u_connector.u_connector.u_axi_tmr_voter_us.m00_vu0_axi_bready
top.u_connector.u_connector.u_axi_tmr_voter_us.m00_vu0_axi_arid
top.u_connector.u_connector.u_axi_tmr_voter_us.m00_vu0_axi_araddr
top.u_connector.u_connector.u_axi_tmr_voter_us.m00_vu0_axi_arlen
top.u_connector.u_connector.u_axi_tmr_voter_us.m00_vu0_axi_arsize
top.u_connector.u_connector.u_axi_tmr_voter_us.m00_vu0_axi_arburst
top.u_connector.u_connector.u_axi_tmr_voter_us.m00_vu0_axi_arlock
top.u_connector.u_connector.u_axi_tmr_voter_us.m00_vu0_axi_arcache
top.u_connector.u_connector.u_axi_tmr_voter_us.m00_vu0_axi_arprot
top.u_connector.u_connector.u_axi_tmr_voter_us.m00_vu0_axi_arqos
top.u_connector.u_connector.u_axi_tmr_voter_us.m00_vu0_axi_aruser
top.u_connector.u_connector.u_axi_tmr_voter_us.m00_vu0_axi_arvalid
top.u_connector.u_connector.u_axi_tmr_voter_us.m00_vu0_axi_arready
top.u_connector.u_connector.u_axi_tmr_voter_us.m00_vu0_axi_rid
top.u_connector.u_connector.u_axi_tmr_voter_us.m00_vu0_axi_rdata
top.u_connector.u_connector.u_axi_tmr_voter_us.m00_vu0_axi_rresp
top.u_connector.u_connector.u_axi_tmr_voter_us.m00_vu0_axi_rlast
top.u_connector.u_connector.u_axi_tmr_voter_us.m00_vu0_axi_ruser
top.u_connector.u_connector.u_axi_tmr_voter_us.m00_vu0_axi_rvalid
top.u_connector.u_connector.u_axi_tmr_voter_us.m00_vu0_axi_rready
top.u_connector.u_connector.u_axi_tmr_voter_us.m01_vu0_axi_awid
top.u_connector.u_connector.u_axi_tmr_voter_us.m01_vu0_axi_awaddr
top.u_connector.u_connector.u_axi_tmr_voter_us.m01_vu0_axi_awlen
top.u_connector.u_connector.u_axi_tmr_voter_us.m01_vu0_axi_awsize
top.u_connector.u_connector.u_axi_tmr_voter_us.m01_vu0_axi_awburst
top.u_connector.u_connector.u_axi_tmr_voter_us.m01_vu0_axi_awlock
top.u_connector.u_connector.u_axi_tmr_voter_us.m01_vu0_axi_awcache
top.u_connector.u_connector.u_axi_tmr_voter_us.m01_vu0_axi_awprot
top.u_connector.u_connector.u_axi_tmr_voter_us.m01_vu0_axi_awqos
top.u_connector.u_connector.u_axi_tmr_voter_us.m01_vu0_axi_awuser
top.u_connector.u_connector.u_axi_tmr_voter_us.m01_vu0_axi_awvalid
top.u_connector.u_connector.u_axi_tmr_voter_us.m01_vu0_axi_awready
top.u_connector.u_connector.u_axi_tmr_voter_us.m01_vu0_axi_wdata
top.u_connector.u_connector.u_axi_tmr_voter_us.m01_vu0_axi_wstrb
top.u_connector.u_connector.u_axi_tmr_voter_us.m01_vu0_axi_wlast
top.u_connector.u_connector.u_axi_tmr_voter_us.m01_vu0_axi_wuser
top.u_connector.u_connector.u_axi_tmr_voter_us.m01_vu0_axi_wvalid
top.u_connector.u_connector.u_axi_tmr_voter_us.m01_vu0_axi_wready
top.u_connector.u_connector.u_axi_tmr_voter_us.m01_vu0_axi_bid
top.u_connector.u_connector.u_axi_tmr_voter_us.m01_vu0_axi_bresp
top.u_connector.u_connector.u_axi_tmr_voter_us.m01_vu0_axi_buser
top.u_connector.u_connector.u_axi_tmr_voter_us.m01_vu0_axi_bvalid
top.u_connector.u_connector.u_axi_tmr_voter_us.m01_vu0_axi_bready
top.u_connector.u_connector.u_axi_tmr_voter_us.m01_vu0_axi_arid
top.u_connector.u_connector.u_axi_tmr_voter_us.m01_vu0_axi_araddr
top.u_connector.u_connector.u_axi_tmr_voter_us.m01_vu0_axi_arlen
top.u_connector.u_connector.u_axi_tmr_voter_us.m01_vu0_axi_arsize
top.u_connector.u_connector.u_axi_tmr_voter_us.m01_vu0_axi_arburst
top.u_connector.u_connector.u_axi_tmr_voter_us.m01_vu0_axi_arlock
top.u_connector.u_connector.u_axi_tmr_voter_us.m01_vu0_axi_arcache
top.u_connector.u_connector.u_axi_tmr_voter_us.m01_vu0_axi_arprot
top.u_connector.u_connector.u_axi_tmr_voter_us.m01_vu0_axi_arqos
top.u_connector.u_connector.u_axi_tmr_voter_us.m01_vu0_axi_aruser
top.u_connector.u_connector.u_axi_tmr_voter_us.m01_vu0_axi_arvalid
top.u_connector.u_connector.u_axi_tmr_voter_us.m01_vu0_axi_arready
top.u_connector.u_connector.u_axi_tmr_voter_us.m01_vu0_axi_rid
top.u_connector.u_connector.u_axi_tmr_voter_us.m01_vu0_axi_rdata
top.u_connector.u_connector.u_axi_tmr_voter_us.m01_vu0_axi_rresp
top.u_connector.u_connector.u_axi_tmr_voter_us.m01_vu0_axi_rlast
top.u_connector.u_connector.u_axi_tmr_voter_us.m01_vu0_axi_ruser
top.u_connector.u_connector.u_axi_tmr_voter_us.m01_vu0_axi_rvalid
top.u_connector.u_connector.u_axi_tmr_voter_us.m01_vu0_axi_rready
top.u_connector.u_connector.u_axi_tmr_voter_us.m02_vu0_axi_awid
top.u_connector.u_connector.u_axi_tmr_voter_us.m02_vu0_axi_awaddr
top.u_connector.u_connector.u_axi_tmr_voter_us.m02_vu0_axi_awlen
top.u_connector.u_connector.u_axi_tmr_voter_us.m02_vu0_axi_awsize
top.u_connector.u_connector.u_axi_tmr_voter_us.m02_vu0_axi_awburst
top.u_connector.u_connector.u_axi_tmr_voter_us.m02_vu0_axi_awlock
top.u_connector.u_connector.u_axi_tmr_voter_us.m02_vu0_axi_awcache
top.u_connector.u_connector.u_axi_tmr_voter_us.m02_vu0_axi_awprot
top.u_connector.u_connector.u_axi_tmr_voter_us.m02_vu0_axi_awqos
top.u_connector.u_connector.u_axi_tmr_voter_us.m02_vu0_axi_awuser
top.u_connector.u_connector.u_axi_tmr_voter_us.m02_vu0_axi_awvalid
top.u_connector.u_connector.u_axi_tmr_voter_us.m02_vu0_axi_awready
top.u_connector.u_connector.u_axi_tmr_voter_us.m02_vu0_axi_wdata
top.u_connector.u_connector.u_axi_tmr_voter_us.m02_vu0_axi_wstrb
top.u_connector.u_connector.u_axi_tmr_voter_us.m02_vu0_axi_wlast
top.u_connector.u_connector.u_axi_tmr_voter_us.m02_vu0_axi_wuser
top.u_connector.u_connector.u_axi_tmr_voter_us.m02_vu0_axi_wvalid
top.u_connector.u_connector.u_axi_tmr_voter_us.m02_vu0_axi_wready
top.u_connector.u_connector.u_axi_tmr_voter_us.m02_vu0_axi_bid
top.u_connector.u_connector.u_axi_tmr_voter_us.m02_vu0_axi_bresp
top.u_connector.u_connector.u_axi_tmr_voter_us.m02_vu0_axi_buser
top.u_connector.u_connector.u_axi_tmr_voter_us.m02_vu0_axi_bvalid
top.u_connector.u_connector.u_axi_tmr_voter_us.m02_vu0_axi_bready
top.u_connector.u_connector.u_axi_tmr_voter_us.m02_vu0_axi_arid
top.u_connector.u_connector.u_axi_tmr_voter_us.m02_vu0_axi_araddr
top.u_connector.u_connector.u_axi_tmr_voter_us.m02_vu0_axi_arlen
top.u_connector.u_connector.u_axi_tmr_voter_us.m02_vu0_axi_arsize
top.u_connector.u_connector.u_axi_tmr_voter_us.m02_vu0_axi_arburst
top.u_connector.u_connector.u_axi_tmr_voter_us.m02_vu0_axi_arlock
top.u_connector.u_connector.u_axi_tmr_voter_us.m02_vu0_axi_arcache
top.u_connector.u_connector.u_axi_tmr_voter_us.m02_vu0_axi_arprot
top.u_connector.u_connector.u_axi_tmr_voter_us.m02_vu0_axi_arqos
top.u_connector.u_connector.u_axi_tmr_voter_us.m02_vu0_axi_aruser
top.u_connector.u_connector.u_axi_tmr_voter_us.m02_vu0_axi_arvalid
top.u_connector.u_connector.u_axi_tmr_voter_us.m02_vu0_axi_arready
top.u_connector.u_connector.u_axi_tmr_voter_us.m02_vu0_axi_rid
top.u_connector.u_connector.u_axi_tmr_voter_us.m02_vu0_axi_rdata
top.u_connector.u_connector.u_axi_tmr_voter_us.m02_vu0_axi_rresp
top.u_connector.u_connector.u_axi_tmr_voter_us.m02_vu0_axi_rlast
top.u_connector.u_connector.u_axi_tmr_voter_us.m02_vu0_axi_ruser
top.u_connector.u_connector.u_axi_tmr_voter_us.m02_vu0_axi_rvalid
top.u_connector.u_connector.u_axi_tmr_voter_us.m02_vu0_axi_rready
top.u_connector.u_connector.u_axi_tmr_voter_us.m00_vu1_axi_awid
top.u_connector.u_connector.u_axi_tmr_voter_us.m00_vu1_axi_awaddr
top.u_connector.u_connector.u_axi_tmr_voter_us.m00_vu1_axi_awlen
top.u_connector.u_connector.u_axi_tmr_voter_us.m00_vu1_axi_awsize
top.u_connector.u_connector.u_axi_tmr_voter_us.m00_vu1_axi_awburst
top.u_connector.u_connector.u_axi_tmr_voter_us.m00_vu1_axi_awlock
top.u_connector.u_connector.u_axi_tmr_voter_us.m00_vu1_axi_awcache
top.u_connector.u_connector.u_axi_tmr_voter_us.m00_vu1_axi_awprot
top.u_connector.u_connector.u_axi_tmr_voter_us.m00_vu1_axi_awqos
top.u_connector.u_connector.u_axi_tmr_voter_us.m00_vu1_axi_awuser
top.u_connector.u_connector.u_axi_tmr_voter_us.m00_vu1_axi_awvalid
top.u_connector.u_connector.u_axi_tmr_voter_us.m00_vu1_axi_awready
top.u_connector.u_connector.u_axi_tmr_voter_us.m00_vu1_axi_wdata
top.u_connector.u_connector.u_axi_tmr_voter_us.m00_vu1_axi_wstrb
top.u_connector.u_connector.u_axi_tmr_voter_us.m00_vu1_axi_wlast
top.u_connector.u_connector.u_axi_tmr_voter_us.m00_vu1_axi_wuser
top.u_connector.u_connector.u_axi_tmr_voter_us.m00_vu1_axi_wvalid
top.u_connector.u_connector.u_axi_tmr_voter_us.m00_vu1_axi_wready
top.u_connector.u_connector.u_axi_tmr_voter_us.m00_vu1_axi_bid
top.u_connector.u_connector.u_axi_tmr_voter_us.m00_vu1_axi_bresp
top.u_connector.u_connector.u_axi_tmr_voter_us.m00_vu1_axi_buser
top.u_connector.u_connector.u_axi_tmr_voter_us.m00_vu1_axi_bvalid
top.u_connector.u_connector.u_axi_tmr_voter_us.m00_vu1_axi_bready
top.u_connector.u_connector.u_axi_tmr_voter_us.m00_vu1_axi_arid
top.u_connector.u_connector.u_axi_tmr_voter_us.m00_vu1_axi_araddr
top.u_connector.u_connector.u_axi_tmr_voter_us.m00_vu1_axi_arlen
top.u_connector.u_connector.u_axi_tmr_voter_us.m00_vu1_axi_arsize
top.u_connector.u_connector.u_axi_tmr_voter_us.m00_vu1_axi_arburst
top.u_connector.u_connector.u_axi_tmr_voter_us.m00_vu1_axi_arlock
top.u_connector.u_connector.u_axi_tmr_voter_us.m00_vu1_axi_arcache
top.u_connector.u_connector.u_axi_tmr_voter_us.m00_vu1_axi_arprot
top.u_connector.u_connector.u_axi_tmr_voter_us.m00_vu1_axi_arqos
top.u_connector.u_connector.u_axi_tmr_voter_us.m00_vu1_axi_aruser
top.u_connector.u_connector.u_axi_tmr_voter_us.m00_vu1_axi_arvalid
top.u_connector.u_connector.u_axi_tmr_voter_us.m00_vu1_axi_arready
top.u_connector.u_connector.u_axi_tmr_voter_us.m00_vu1_axi_rid
top.u_connector.u_connector.u_axi_tmr_voter_us.m00_vu1_axi_rdata
top.u_connector.u_connector.u_axi_tmr_voter_us.m00_vu1_axi_rresp
top.u_connector.u_connector.u_axi_tmr_voter_us.m00_vu1_axi_rlast
top.u_connector.u_connector.u_axi_tmr_voter_us.m00_vu1_axi_ruser
top.u_connector.u_connector.u_axi_tmr_voter_us.m00_vu1_axi_rvalid
top.u_connector.u_connector.u_axi_tmr_voter_us.m00_vu1_axi_rready
top.u_connector.u_connector.u_axi_tmr_voter_us.m01_vu1_axi_awid
top.u_connector.u_connector.u_axi_tmr_voter_us.m01_vu1_axi_awaddr
top.u_connector.u_connector.u_axi_tmr_voter_us.m01_vu1_axi_awlen
top.u_connector.u_connector.u_axi_tmr_voter_us.m01_vu1_axi_awsize
top.u_connector.u_connector.u_axi_tmr_voter_us.m01_vu1_axi_awburst
top.u_connector.u_connector.u_axi_tmr_voter_us.m01_vu1_axi_awlock
top.u_connector.u_connector.u_axi_tmr_voter_us.m01_vu1_axi_awcache
top.u_connector.u_connector.u_axi_tmr_voter_us.m01_vu1_axi_awprot
top.u_connector.u_connector.u_axi_tmr_voter_us.m01_vu1_axi_awqos
top.u_connector.u_connector.u_axi_tmr_voter_us.m01_vu1_axi_awuser
top.u_connector.u_connector.u_axi_tmr_voter_us.m01_vu1_axi_awvalid
top.u_connector.u_connector.u_axi_tmr_voter_us.m01_vu1_axi_awready
top.u_connector.u_connector.u_axi_tmr_voter_us.m01_vu1_axi_wdata
top.u_connector.u_connector.u_axi_tmr_voter_us.m01_vu1_axi_wstrb
top.u_connector.u_connector.u_axi_tmr_voter_us.m01_vu1_axi_wlast
top.u_connector.u_connector.u_axi_tmr_voter_us.m01_vu1_axi_wuser
top.u_connector.u_connector.u_axi_tmr_voter_us.m01_vu1_axi_wvalid
top.u_connector.u_connector.u_axi_tmr_voter_us.m01_vu1_axi_wready
top.u_connector.u_connector.u_axi_tmr_voter_us.m01_vu1_axi_bid
top.u_connector.u_connector.u_axi_tmr_voter_us.m01_vu1_axi_bresp
top.u_connector.u_connector.u_axi_tmr_voter_us.m01_vu1_axi_buser
top.u_connector.u_connector.u_axi_tmr_voter_us.m01_vu1_axi_bvalid
top.u_connector.u_connector.u_axi_tmr_voter_us.m01_vu1_axi_bready
top.u_connector.u_connector.u_axi_tmr_voter_us.m01_vu1_axi_arid
top.u_connector.u_connector.u_axi_tmr_voter_us.m01_vu1_axi_araddr
top.u_connector.u_connector.u_axi_tmr_voter_us.m01_vu1_axi_arlen
top.u_connector.u_connector.u_axi_tmr_voter_us.m01_vu1_axi_arsize
top.u_connector.u_connector.u_axi_tmr_voter_us.m01_vu1_axi_arburst
top.u_connector.u_connector.u_axi_tmr_voter_us.m01_vu1_axi_arlock
top.u_connector.u_connector.u_axi_tmr_voter_us.m01_vu1_axi_arcache
top.u_connector.u_connector.u_axi_tmr_voter_us.m01_vu1_axi_arprot
top.u_connector.u_connector.u_axi_tmr_voter_us.m01_vu1_axi_arqos
top.u_connector.u_connector.u_axi_tmr_voter_us.m01_vu1_axi_aruser
top.u_connector.u_connector.u_axi_tmr_voter_us.m01_vu1_axi_arvalid
top.u_connector.u_connector.u_axi_tmr_voter_us.m01_vu1_axi_arready
top.u_connector.u_connector.u_axi_tmr_voter_us.m01_vu1_axi_rid
top.u_connector.u_connector.u_axi_tmr_voter_us.m01_vu1_axi_rdata
top.u_connector.u_connector.u_axi_tmr_voter_us.m01_vu1_axi_rresp
top.u_connector.u_connector.u_axi_tmr_voter_us.m01_vu1_axi_rlast
top.u_connector.u_connector.u_axi_tmr_voter_us.m01_vu1_axi_ruser
top.u_connector.u_connector.u_axi_tmr_voter_us.m01_vu1_axi_rvalid
top.u_connector.u_connector.u_axi_tmr_voter_us.m01_vu1_axi_rready
top.u_connector.u_connector.u_axi_tmr_voter_us.m02_vu1_axi_awid
top.u_connector.u_connector.u_axi_tmr_voter_us.m02_vu1_axi_awaddr
top.u_connector.u_connector.u_axi_tmr_voter_us.m02_vu1_axi_awlen
top.u_connector.u_connector.u_axi_tmr_voter_us.m02_vu1_axi_awsize
top.u_connector.u_connector.u_axi_tmr_voter_us.m02_vu1_axi_awburst
top.u_connector.u_connector.u_axi_tmr_voter_us.m02_vu1_axi_awlock
top.u_connector.u_connector.u_axi_tmr_voter_us.m02_vu1_axi_awcache
top.u_connector.u_connector.u_axi_tmr_voter_us.m02_vu1_axi_awprot
top.u_connector.u_connector.u_axi_tmr_voter_us.m02_vu1_axi_awqos
top.u_connector.u_connector.u_axi_tmr_voter_us.m02_vu1_axi_awuser
top.u_connector.u_connector.u_axi_tmr_voter_us.m02_vu1_axi_awvalid
top.u_connector.u_connector.u_axi_tmr_voter_us.m02_vu1_axi_awready
top.u_connector.u_connector.u_axi_tmr_voter_us.m02_vu1_axi_wdata
top.u_connector.u_connector.u_axi_tmr_voter_us.m02_vu1_axi_wstrb
top.u_connector.u_connector.u_axi_tmr_voter_us.m02_vu1_axi_wlast
top.u_connector.u_connector.u_axi_tmr_voter_us.m02_vu1_axi_wuser
top.u_connector.u_connector.u_axi_tmr_voter_us.m02_vu1_axi_wvalid
top.u_connector.u_connector.u_axi_tmr_voter_us.m02_vu1_axi_wready
top.u_connector.u_connector.u_axi_tmr_voter_us.m02_vu1_axi_bid
top.u_connector.u_connector.u_axi_tmr_voter_us.m02_vu1_axi_bresp
top.u_connector.u_connector.u_axi_tmr_voter_us.m02_vu1_axi_buser
top.u_connector.u_connector.u_axi_tmr_voter_us.m02_vu1_axi_bvalid
top.u_connector.u_connector.u_axi_tmr_voter_us.m02_vu1_axi_bready
top.u_connector.u_connector.u_axi_tmr_voter_us.m02_vu1_axi_arid
top.u_connector.u_connector.u_axi_tmr_voter_us.m02_vu1_axi_araddr
top.u_connector.u_connector.u_axi_tmr_voter_us.m02_vu1_axi_arlen
top.u_connector.u_connector.u_axi_tmr_voter_us.m02_vu1_axi_arsize
top.u_connector.u_connector.u_axi_tmr_voter_us.m02_vu1_axi_arburst
top.u_connector.u_connector.u_axi_tmr_voter_us.m02_vu1_axi_arlock
top.u_connector.u_connector.u_axi_tmr_voter_us.m02_vu1_axi_arcache
top.u_connector.u_connector.u_axi_tmr_voter_us.m02_vu1_axi_arprot
top.u_connector.u_connector.u_axi_tmr_voter_us.m02_vu1_axi_arqos
top.u_connector.u_connector.u_axi_tmr_voter_us.m02_vu1_axi_aruser
top.u_connector.u_connector.u_axi_tmr_voter_us.m02_vu1_axi_arvalid
top.u_connector.u_connector.u_axi_tmr_voter_us.m02_vu1_axi_arready
top.u_connector.u_connector.u_axi_tmr_voter_us.m02_vu1_axi_rid
top.u_connector.u_connector.u_axi_tmr_voter_us.m02_vu1_axi_rdata
top.u_connector.u_connector.u_axi_tmr_voter_us.m02_vu1_axi_rresp
top.u_connector.u_connector.u_axi_tmr_voter_us.m02_vu1_axi_rlast
top.u_connector.u_connector.u_axi_tmr_voter_us.m02_vu1_axi_ruser
top.u_connector.u_connector.u_axi_tmr_voter_us.m02_vu1_axi_rvalid
top.u_connector.u_connector.u_axi_tmr_voter_us.m02_vu1_axi_rready
top.u_connector.u_connector.u_axi_tmr_voter_us.m00_vu2_axi_awid
top.u_connector.u_connector.u_axi_tmr_voter_us.m00_vu2_axi_awaddr
top.u_connector.u_connector.u_axi_tmr_voter_us.m00_vu2_axi_awlen
top.u_connector.u_connector.u_axi_tmr_voter_us.m00_vu2_axi_awsize
top.u_connector.u_connector.u_axi_tmr_voter_us.m00_vu2_axi_awburst
top.u_connector.u_connector.u_axi_tmr_voter_us.m00_vu2_axi_awlock
top.u_connector.u_connector.u_axi_tmr_voter_us.m00_vu2_axi_awcache
top.u_connector.u_connector.u_axi_tmr_voter_us.m00_vu2_axi_awprot
top.u_connector.u_connector.u_axi_tmr_voter_us.m00_vu2_axi_awqos
top.u_connector.u_connector.u_axi_tmr_voter_us.m00_vu2_axi_awuser
top.u_connector.u_connector.u_axi_tmr_voter_us.m00_vu2_axi_awvalid
top.u_connector.u_connector.u_axi_tmr_voter_us.m00_vu2_axi_awready
top.u_connector.u_connector.u_axi_tmr_voter_us.m00_vu2_axi_wdata
top.u_connector.u_connector.u_axi_tmr_voter_us.m00_vu2_axi_wstrb
top.u_connector.u_connector.u_axi_tmr_voter_us.m00_vu2_axi_wlast
top.u_connector.u_connector.u_axi_tmr_voter_us.m00_vu2_axi_wuser
top.u_connector.u_connector.u_axi_tmr_voter_us.m00_vu2_axi_wvalid
top.u_connector.u_connector.u_axi_tmr_voter_us.m00_vu2_axi_wready
top.u_connector.u_connector.u_axi_tmr_voter_us.m00_vu2_axi_bid
top.u_connector.u_connector.u_axi_tmr_voter_us.m00_vu2_axi_bresp
top.u_connector.u_connector.u_axi_tmr_voter_us.m00_vu2_axi_buser
top.u_connector.u_connector.u_axi_tmr_voter_us.m00_vu2_axi_bvalid
top.u_connector.u_connector.u_axi_tmr_voter_us.m00_vu2_axi_bready
top.u_connector.u_connector.u_axi_tmr_voter_us.m00_vu2_axi_arid
top.u_connector.u_connector.u_axi_tmr_voter_us.m00_vu2_axi_araddr
top.u_connector.u_connector.u_axi_tmr_voter_us.m00_vu2_axi_arlen
top.u_connector.u_connector.u_axi_tmr_voter_us.m00_vu2_axi_arsize
top.u_connector.u_connector.u_axi_tmr_voter_us.m00_vu2_axi_arburst
top.u_connector.u_connector.u_axi_tmr_voter_us.m00_vu2_axi_arlock
top.u_connector.u_connector.u_axi_tmr_voter_us.m00_vu2_axi_arcache
top.u_connector.u_connector.u_axi_tmr_voter_us.m00_vu2_axi_arprot
top.u_connector.u_connector.u_axi_tmr_voter_us.m00_vu2_axi_arqos
top.u_connector.u_connector.u_axi_tmr_voter_us.m00_vu2_axi_aruser
top.u_connector.u_connector.u_axi_tmr_voter_us.m00_vu2_axi_arvalid
top.u_connector.u_connector.u_axi_tmr_voter_us.m00_vu2_axi_arready
top.u_connector.u_connector.u_axi_tmr_voter_us.m00_vu2_axi_rid
top.u_connector.u_connector.u_axi_tmr_voter_us.m00_vu2_axi_rdata
top.u_connector.u_connector.u_axi_tmr_voter_us.m00_vu2_axi_rresp
top.u_connector.u_connector.u_axi_tmr_voter_us.m00_vu2_axi_rlast
top.u_connector.u_connector.u_axi_tmr_voter_us.m00_vu2_axi_ruser
top.u_connector.u_connector.u_axi_tmr_voter_us.m00_vu2_axi_rvalid
top.u_connector.u_connector.u_axi_tmr_voter_us.m00_vu2_axi_rready
top.u_connector.u_connector.u_axi_tmr_voter_us.m01_vu2_axi_awid
top.u_connector.u_connector.u_axi_tmr_voter_us.m01_vu2_axi_awaddr
top.u_connector.u_connector.u_axi_tmr_voter_us.m01_vu2_axi_awlen
top.u_connector.u_connector.u_axi_tmr_voter_us.m01_vu2_axi_awsize
top.u_connector.u_connector.u_axi_tmr_voter_us.m01_vu2_axi_awburst
top.u_connector.u_connector.u_axi_tmr_voter_us.m01_vu2_axi_awlock
top.u_connector.u_connector.u_axi_tmr_voter_us.m01_vu2_axi_awcache
top.u_connector.u_connector.u_axi_tmr_voter_us.m01_vu2_axi_awprot
top.u_connector.u_connector.u_axi_tmr_voter_us.m01_vu2_axi_awqos
top.u_connector.u_connector.u_axi_tmr_voter_us.m01_vu2_axi_awuser
top.u_connector.u_connector.u_axi_tmr_voter_us.m01_vu2_axi_awvalid
top.u_connector.u_connector.u_axi_tmr_voter_us.m01_vu2_axi_awready
top.u_connector.u_connector.u_axi_tmr_voter_us.m01_vu2_axi_wdata
top.u_connector.u_connector.u_axi_tmr_voter_us.m01_vu2_axi_wstrb
top.u_connector.u_connector.u_axi_tmr_voter_us.m01_vu2_axi_wlast
top.u_connector.u_connector.u_axi_tmr_voter_us.m01_vu2_axi_wuser
top.u_connector.u_connector.u_axi_tmr_voter_us.m01_vu2_axi_wvalid
top.u_connector.u_connector.u_axi_tmr_voter_us.m01_vu2_axi_wready
top.u_connector.u_connector.u_axi_tmr_voter_us.m01_vu2_axi_bid
top.u_connector.u_connector.u_axi_tmr_voter_us.m01_vu2_axi_bresp
top.u_connector.u_connector.u_axi_tmr_voter_us.m01_vu2_axi_buser
top.u_connector.u_connector.u_axi_tmr_voter_us.m01_vu2_axi_bvalid
top.u_connector.u_connector.u_axi_tmr_voter_us.m01_vu2_axi_bready
top.u_connector.u_connector.u_axi_tmr_voter_us.m01_vu2_axi_arid
top.u_connector.u_connector.u_axi_tmr_voter_us.m01_vu2_axi_araddr
top.u_connector.u_connector.u_axi_tmr_voter_us.m01_vu2_axi_arlen
top.u_connector.u_connector.u_axi_tmr_voter_us.m01_vu2_axi_arsize
top.u_connector.u_connector.u_axi_tmr_voter_us.m01_vu2_axi_arburst
top.u_connector.u_connector.u_axi_tmr_voter_us.m01_vu2_axi_arlock
top.u_connector.u_connector.u_axi_tmr_voter_us.m01_vu2_axi_arcache
top.u_connector.u_connector.u_axi_tmr_voter_us.m01_vu2_axi_arprot
top.u_connector.u_connector.u_axi_tmr_voter_us.m01_vu2_axi_arqos
top.u_connector.u_connector.u_axi_tmr_voter_us.m01_vu2_axi_aruser
top.u_connector.u_connector.u_axi_tmr_voter_us.m01_vu2_axi_arvalid
top.u_connector.u_connector.u_axi_tmr_voter_us.m01_vu2_axi_arready
top.u_connector.u_connector.u_axi_tmr_voter_us.m01_vu2_axi_rid
top.u_connector.u_connector.u_axi_tmr_voter_us.m01_vu2_axi_rdata
top.u_connector.u_connector.u_axi_tmr_voter_us.m01_vu2_axi_rresp
top.u_connector.u_connector.u_axi_tmr_voter_us.m01_vu2_axi_rlast
top.u_connector.u_connector.u_axi_tmr_voter_us.m01_vu2_axi_ruser
top.u_connector.u_connector.u_axi_tmr_voter_us.m01_vu2_axi_rvalid
top.u_connector.u_connector.u_axi_tmr_voter_us.m01_vu2_axi_rready
top.u_connector.u_connector.u_axi_tmr_voter_us.m02_vu2_axi_awid
top.u_connector.u_connector.u_axi_tmr_voter_us.m02_vu2_axi_awaddr
top.u_connector.u_connector.u_axi_tmr_voter_us.m02_vu2_axi_awlen
top.u_connector.u_connector.u_axi_tmr_voter_us.m02_vu2_axi_awsize
top.u_connector.u_connector.u_axi_tmr_voter_us.m02_vu2_axi_awburst
top.u_connector.u_connector.u_axi_tmr_voter_us.m02_vu2_axi_awlock
top.u_connector.u_connector.u_axi_tmr_voter_us.m02_vu2_axi_awcache
top.u_connector.u_connector.u_axi_tmr_voter_us.m02_vu2_axi_awprot
top.u_connector.u_connector.u_axi_tmr_voter_us.m02_vu2_axi_awqos
top.u_connector.u_connector.u_axi_tmr_voter_us.m02_vu2_axi_awuser
top.u_connector.u_connector.u_axi_tmr_voter_us.m02_vu2_axi_awvalid
top.u_connector.u_connector.u_axi_tmr_voter_us.m02_vu2_axi_awready
top.u_connector.u_connector.u_axi_tmr_voter_us.m02_vu2_axi_wdata
top.u_connector.u_connector.u_axi_tmr_voter_us.m02_vu2_axi_wstrb
top.u_connector.u_connector.u_axi_tmr_voter_us.m02_vu2_axi_wlast
top.u_connector.u_connector.u_axi_tmr_voter_us.m02_vu2_axi_wuser
top.u_connector.u_connector.u_axi_tmr_voter_us.m02_vu2_axi_wvalid
top.u_connector.u_connector.u_axi_tmr_voter_us.m02_vu2_axi_wready
top.u_connector.u_connector.u_axi_tmr_voter_us.m02_vu2_axi_bid
top.u_connector.u_connector.u_axi_tmr_voter_us.m02_vu2_axi_bresp
top.u_connector.u_connector.u_axi_tmr_voter_us.m02_vu2_axi_buser
top.u_connector.u_connector.u_axi_tmr_voter_us.m02_vu2_axi_bvalid
top.u_connector.u_connector.u_axi_tmr_voter_us.m02_vu2_axi_bready
top.u_connector.u_connector.u_axi_tmr_voter_us.m02_vu2_axi_arid
top.u_connector.u_connector.u_axi_tmr_voter_us.m02_vu2_axi_araddr
top.u_connector.u_connector.u_axi_tmr_voter_us.m02_vu2_axi_arlen
top.u_connector.u_connector.u_axi_tmr_voter_us.m02_vu2_axi_arsize
top.u_connector.u_connector.u_axi_tmr_voter_us.m02_vu2_axi_arburst
top.u_connector.u_connector.u_axi_tmr_voter_us.m02_vu2_axi_arlock
top.u_connector.u_connector.u_axi_tmr_voter_us.m02_vu2_axi_arcache
top.u_connector.u_connector.u_axi_tmr_voter_us.m02_vu2_axi_arprot
top.u_connector.u_connector.u_axi_tmr_voter_us.m02_vu2_axi_arqos
top.u_connector.u_connector.u_axi_tmr_voter_us.m02_vu2_axi_aruser
top.u_connector.u_connector.u_axi_tmr_voter_us.m02_vu2_axi_arvalid
top.u_connector.u_connector.u_axi_tmr_voter_us.m02_vu2_axi_arready
top.u_connector.u_connector.u_axi_tmr_voter_us.m02_vu2_axi_rid
top.u_connector.u_connector.u_axi_tmr_voter_us.m02_vu2_axi_rdata
top.u_connector.u_connector.u_axi_tmr_voter_us.m02_vu2_axi_rresp
top.u_connector.u_connector.u_axi_tmr_voter_us.m02_vu2_axi_rlast
top.u_connector.u_connector.u_axi_tmr_voter_us.m02_vu2_axi_ruser
top.u_connector.u_connector.u_axi_tmr_voter_us.m02_vu2_axi_rvalid
top.u_connector.u_connector.u_axi_tmr_voter_us.m02_vu2_axi_rready
top.u_connector.u_connector.u_axi_tmr_voter_us.axi_tmr_voter_us_3m1s_inst0.clk
top.u_connector.u_connector.u_axi_tmr_voter_us.axi_tmr_voter_us_3m1s_inst0.rst
top.u_connector.u_connector.u_axi_tmr_voter_us.axi_tmr_voter_us_3m1s_inst0.s00_axi_awid
top.u_connector.u_connector.u_axi_tmr_voter_us.axi_tmr_voter_us_3m1s_inst0.s00_axi_awaddr
top.u_connector.u_connector.u_axi_tmr_voter_us.axi_tmr_voter_us_3m1s_inst0.s00_axi_awlen
top.u_connector.u_connector.u_axi_tmr_voter_us.axi_tmr_voter_us_3m1s_inst0.s00_axi_awsize
top.u_connector.u_connector.u_axi_tmr_voter_us.axi_tmr_voter_us_3m1s_inst0.s00_axi_awburst
top.u_connector.u_connector.u_axi_tmr_voter_us.axi_tmr_voter_us_3m1s_inst0.s00_axi_awlock
top.u_connector.u_connector.u_axi_tmr_voter_us.axi_tmr_voter_us_3m1s_inst0.s00_axi_awcache
top.u_connector.u_connector.u_axi_tmr_voter_us.axi_tmr_voter_us_3m1s_inst0.s00_axi_awprot
top.u_connector.u_connector.u_axi_tmr_voter_us.axi_tmr_voter_us_3m1s_inst0.s00_axi_awqos
top.u_connector.u_connector.u_axi_tmr_voter_us.axi_tmr_voter_us_3m1s_inst0.s00_axi_awuser
top.u_connector.u_connector.u_axi_tmr_voter_us.axi_tmr_voter_us_3m1s_inst0.s00_axi_awvalid
top.u_connector.u_connector.u_axi_tmr_voter_us.axi_tmr_voter_us_3m1s_inst0.s00_axi_awready
top.u_connector.u_connector.u_axi_tmr_voter_us.axi_tmr_voter_us_3m1s_inst0.s00_axi_wdata
top.u_connector.u_connector.u_axi_tmr_voter_us.axi_tmr_voter_us_3m1s_inst0.s00_axi_wstrb
top.u_connector.u_connector.u_axi_tmr_voter_us.axi_tmr_voter_us_3m1s_inst0.s00_axi_wlast
top.u_connector.u_connector.u_axi_tmr_voter_us.axi_tmr_voter_us_3m1s_inst0.s00_axi_wuser
top.u_connector.u_connector.u_axi_tmr_voter_us.axi_tmr_voter_us_3m1s_inst0.s00_axi_wvalid
top.u_connector.u_connector.u_axi_tmr_voter_us.axi_tmr_voter_us_3m1s_inst0.s00_axi_wready
top.u_connector.u_connector.u_axi_tmr_voter_us.axi_tmr_voter_us_3m1s_inst0.s00_axi_bid
top.u_connector.u_connector.u_axi_tmr_voter_us.axi_tmr_voter_us_3m1s_inst0.s00_axi_bresp
top.u_connector.u_connector.u_axi_tmr_voter_us.axi_tmr_voter_us_3m1s_inst0.s00_axi_buser
top.u_connector.u_connector.u_axi_tmr_voter_us.axi_tmr_voter_us_3m1s_inst0.s00_axi_bvalid
top.u_connector.u_connector.u_axi_tmr_voter_us.axi_tmr_voter_us_3m1s_inst0.s00_axi_bready
top.u_connector.u_connector.u_axi_tmr_voter_us.axi_tmr_voter_us_3m1s_inst0.s00_axi_arid
top.u_connector.u_connector.u_axi_tmr_voter_us.axi_tmr_voter_us_3m1s_inst0.s00_axi_araddr
top.u_connector.u_connector.u_axi_tmr_voter_us.axi_tmr_voter_us_3m1s_inst0.s00_axi_arlen
top.u_connector.u_connector.u_axi_tmr_voter_us.axi_tmr_voter_us_3m1s_inst0.s00_axi_arsize
top.u_connector.u_connector.u_axi_tmr_voter_us.axi_tmr_voter_us_3m1s_inst0.s00_axi_arburst
top.u_connector.u_connector.u_axi_tmr_voter_us.axi_tmr_voter_us_3m1s_inst0.s00_axi_arlock
top.u_connector.u_connector.u_axi_tmr_voter_us.axi_tmr_voter_us_3m1s_inst0.s00_axi_arcache
top.u_connector.u_connector.u_axi_tmr_voter_us.axi_tmr_voter_us_3m1s_inst0.s00_axi_arprot
top.u_connector.u_connector.u_axi_tmr_voter_us.axi_tmr_voter_us_3m1s_inst0.s00_axi_arqos
top.u_connector.u_connector.u_axi_tmr_voter_us.axi_tmr_voter_us_3m1s_inst0.s00_axi_aruser
top.u_connector.u_connector.u_axi_tmr_voter_us.axi_tmr_voter_us_3m1s_inst0.s00_axi_arvalid
top.u_connector.u_connector.u_axi_tmr_voter_us.axi_tmr_voter_us_3m1s_inst0.s00_axi_arready
top.u_connector.u_connector.u_axi_tmr_voter_us.axi_tmr_voter_us_3m1s_inst0.s00_axi_rid
top.u_connector.u_connector.u_axi_tmr_voter_us.axi_tmr_voter_us_3m1s_inst0.s00_axi_rdata
top.u_connector.u_connector.u_axi_tmr_voter_us.axi_tmr_voter_us_3m1s_inst0.s00_axi_rresp
top.u_connector.u_connector.u_axi_tmr_voter_us.axi_tmr_voter_us_3m1s_inst0.s00_axi_rlast
top.u_connector.u_connector.u_axi_tmr_voter_us.axi_tmr_voter_us_3m1s_inst0.s00_axi_ruser
top.u_connector.u_connector.u_axi_tmr_voter_us.axi_tmr_voter_us_3m1s_inst0.s00_axi_rvalid
top.u_connector.u_connector.u_axi_tmr_voter_us.axi_tmr_voter_us_3m1s_inst0.s00_axi_rready
top.u_connector.u_connector.u_axi_tmr_voter_us.axi_tmr_voter_us_3m1s_inst0.m00_axi_awid
top.u_connector.u_connector.u_axi_tmr_voter_us.axi_tmr_voter_us_3m1s_inst0.m00_axi_awaddr
top.u_connector.u_connector.u_axi_tmr_voter_us.axi_tmr_voter_us_3m1s_inst0.m00_axi_awlen
top.u_connector.u_connector.u_axi_tmr_voter_us.axi_tmr_voter_us_3m1s_inst0.m00_axi_awsize
top.u_connector.u_connector.u_axi_tmr_voter_us.axi_tmr_voter_us_3m1s_inst0.m00_axi_awburst
top.u_connector.u_connector.u_axi_tmr_voter_us.axi_tmr_voter_us_3m1s_inst0.m00_axi_awlock
top.u_connector.u_connector.u_axi_tmr_voter_us.axi_tmr_voter_us_3m1s_inst0.m00_axi_awcache
top.u_connector.u_connector.u_axi_tmr_voter_us.axi_tmr_voter_us_3m1s_inst0.m00_axi_awprot
top.u_connector.u_connector.u_axi_tmr_voter_us.axi_tmr_voter_us_3m1s_inst0.m00_axi_awqos
top.u_connector.u_connector.u_axi_tmr_voter_us.axi_tmr_voter_us_3m1s_inst0.m00_axi_awuser
top.u_connector.u_connector.u_axi_tmr_voter_us.axi_tmr_voter_us_3m1s_inst0.m00_axi_awvalid
top.u_connector.u_connector.u_axi_tmr_voter_us.axi_tmr_voter_us_3m1s_inst0.m00_axi_awready
top.u_connector.u_connector.u_axi_tmr_voter_us.axi_tmr_voter_us_3m1s_inst0.m00_axi_wdata
top.u_connector.u_connector.u_axi_tmr_voter_us.axi_tmr_voter_us_3m1s_inst0.m00_axi_wstrb
top.u_connector.u_connector.u_axi_tmr_voter_us.axi_tmr_voter_us_3m1s_inst0.m00_axi_wlast
top.u_connector.u_connector.u_axi_tmr_voter_us.axi_tmr_voter_us_3m1s_inst0.m00_axi_wuser
top.u_connector.u_connector.u_axi_tmr_voter_us.axi_tmr_voter_us_3m1s_inst0.m00_axi_wvalid
top.u_connector.u_connector.u_axi_tmr_voter_us.axi_tmr_voter_us_3m1s_inst0.m00_axi_wready
top.u_connector.u_connector.u_axi_tmr_voter_us.axi_tmr_voter_us_3m1s_inst0.m00_axi_bid
top.u_connector.u_connector.u_axi_tmr_voter_us.axi_tmr_voter_us_3m1s_inst0.m00_axi_bresp
top.u_connector.u_connector.u_axi_tmr_voter_us.axi_tmr_voter_us_3m1s_inst0.m00_axi_buser
top.u_connector.u_connector.u_axi_tmr_voter_us.axi_tmr_voter_us_3m1s_inst0.m00_axi_bvalid
top.u_connector.u_connector.u_axi_tmr_voter_us.axi_tmr_voter_us_3m1s_inst0.m00_axi_bready
top.u_connector.u_connector.u_axi_tmr_voter_us.axi_tmr_voter_us_3m1s_inst0.m00_axi_arid
top.u_connector.u_connector.u_axi_tmr_voter_us.axi_tmr_voter_us_3m1s_inst0.m00_axi_araddr
top.u_connector.u_connector.u_axi_tmr_voter_us.axi_tmr_voter_us_3m1s_inst0.m00_axi_arlen
top.u_connector.u_connector.u_axi_tmr_voter_us.axi_tmr_voter_us_3m1s_inst0.m00_axi_arsize
top.u_connector.u_connector.u_axi_tmr_voter_us.axi_tmr_voter_us_3m1s_inst0.m00_axi_arburst
top.u_connector.u_connector.u_axi_tmr_voter_us.axi_tmr_voter_us_3m1s_inst0.m00_axi_arlock
top.u_connector.u_connector.u_axi_tmr_voter_us.axi_tmr_voter_us_3m1s_inst0.m00_axi_arcache
top.u_connector.u_connector.u_axi_tmr_voter_us.axi_tmr_voter_us_3m1s_inst0.m00_axi_arprot
top.u_connector.u_connector.u_axi_tmr_voter_us.axi_tmr_voter_us_3m1s_inst0.m00_axi_arqos
top.u_connector.u_connector.u_axi_tmr_voter_us.axi_tmr_voter_us_3m1s_inst0.m00_axi_aruser
top.u_connector.u_connector.u_axi_tmr_voter_us.axi_tmr_voter_us_3m1s_inst0.m00_axi_arvalid
top.u_connector.u_connector.u_axi_tmr_voter_us.axi_tmr_voter_us_3m1s_inst0.m00_axi_arready
top.u_connector.u_connector.u_axi_tmr_voter_us.axi_tmr_voter_us_3m1s_inst0.m00_axi_rid
top.u_connector.u_connector.u_axi_tmr_voter_us.axi_tmr_voter_us_3m1s_inst0.m00_axi_rdata
top.u_connector.u_connector.u_axi_tmr_voter_us.axi_tmr_voter_us_3m1s_inst0.m00_axi_rresp
top.u_connector.u_connector.u_axi_tmr_voter_us.axi_tmr_voter_us_3m1s_inst0.m00_axi_rlast
top.u_connector.u_connector.u_axi_tmr_voter_us.axi_tmr_voter_us_3m1s_inst0.m00_axi_ruser
top.u_connector.u_connector.u_axi_tmr_voter_us.axi_tmr_voter_us_3m1s_inst0.m00_axi_rvalid
top.u_connector.u_connector.u_axi_tmr_voter_us.axi_tmr_voter_us_3m1s_inst0.m00_axi_rready
top.u_connector.u_connector.u_axi_tmr_voter_us.axi_tmr_voter_us_3m1s_inst0.m01_axi_awid
top.u_connector.u_connector.u_axi_tmr_voter_us.axi_tmr_voter_us_3m1s_inst0.m01_axi_awaddr
top.u_connector.u_connector.u_axi_tmr_voter_us.axi_tmr_voter_us_3m1s_inst0.m01_axi_awlen
top.u_connector.u_connector.u_axi_tmr_voter_us.axi_tmr_voter_us_3m1s_inst0.m01_axi_awsize
top.u_connector.u_connector.u_axi_tmr_voter_us.axi_tmr_voter_us_3m1s_inst0.m01_axi_awburst
top.u_connector.u_connector.u_axi_tmr_voter_us.axi_tmr_voter_us_3m1s_inst0.m01_axi_awlock
top.u_connector.u_connector.u_axi_tmr_voter_us.axi_tmr_voter_us_3m1s_inst0.m01_axi_awcache
top.u_connector.u_connector.u_axi_tmr_voter_us.axi_tmr_voter_us_3m1s_inst0.m01_axi_awprot
top.u_connector.u_connector.u_axi_tmr_voter_us.axi_tmr_voter_us_3m1s_inst0.m01_axi_awqos
top.u_connector.u_connector.u_axi_tmr_voter_us.axi_tmr_voter_us_3m1s_inst0.m01_axi_awuser
top.u_connector.u_connector.u_axi_tmr_voter_us.axi_tmr_voter_us_3m1s_inst0.m01_axi_awvalid
top.u_connector.u_connector.u_axi_tmr_voter_us.axi_tmr_voter_us_3m1s_inst0.m01_axi_awready
top.u_connector.u_connector.u_axi_tmr_voter_us.axi_tmr_voter_us_3m1s_inst0.m01_axi_wdata
top.u_connector.u_connector.u_axi_tmr_voter_us.axi_tmr_voter_us_3m1s_inst0.m01_axi_wstrb
top.u_connector.u_connector.u_axi_tmr_voter_us.axi_tmr_voter_us_3m1s_inst0.m01_axi_wlast
top.u_connector.u_connector.u_axi_tmr_voter_us.axi_tmr_voter_us_3m1s_inst0.m01_axi_wuser
top.u_connector.u_connector.u_axi_tmr_voter_us.axi_tmr_voter_us_3m1s_inst0.m01_axi_wvalid
top.u_connector.u_connector.u_axi_tmr_voter_us.axi_tmr_voter_us_3m1s_inst0.m01_axi_wready
top.u_connector.u_connector.u_axi_tmr_voter_us.axi_tmr_voter_us_3m1s_inst0.m01_axi_bid
top.u_connector.u_connector.u_axi_tmr_voter_us.axi_tmr_voter_us_3m1s_inst0.m01_axi_bresp
top.u_connector.u_connector.u_axi_tmr_voter_us.axi_tmr_voter_us_3m1s_inst0.m01_axi_buser
top.u_connector.u_connector.u_axi_tmr_voter_us.axi_tmr_voter_us_3m1s_inst0.m01_axi_bvalid
top.u_connector.u_connector.u_axi_tmr_voter_us.axi_tmr_voter_us_3m1s_inst0.m01_axi_bready
top.u_connector.u_connector.u_axi_tmr_voter_us.axi_tmr_voter_us_3m1s_inst0.m01_axi_arid
top.u_connector.u_connector.u_axi_tmr_voter_us.axi_tmr_voter_us_3m1s_inst0.m01_axi_araddr
top.u_connector.u_connector.u_axi_tmr_voter_us.axi_tmr_voter_us_3m1s_inst0.m01_axi_arlen
top.u_connector.u_connector.u_axi_tmr_voter_us.axi_tmr_voter_us_3m1s_inst0.m01_axi_arsize
top.u_connector.u_connector.u_axi_tmr_voter_us.axi_tmr_voter_us_3m1s_inst0.m01_axi_arburst
top.u_connector.u_connector.u_axi_tmr_voter_us.axi_tmr_voter_us_3m1s_inst0.m01_axi_arlock
top.u_connector.u_connector.u_axi_tmr_voter_us.axi_tmr_voter_us_3m1s_inst0.m01_axi_arcache
top.u_connector.u_connector.u_axi_tmr_voter_us.axi_tmr_voter_us_3m1s_inst0.m01_axi_arprot
top.u_connector.u_connector.u_axi_tmr_voter_us.axi_tmr_voter_us_3m1s_inst0.m01_axi_arqos
top.u_connector.u_connector.u_axi_tmr_voter_us.axi_tmr_voter_us_3m1s_inst0.m01_axi_aruser
top.u_connector.u_connector.u_axi_tmr_voter_us.axi_tmr_voter_us_3m1s_inst0.m01_axi_arvalid
top.u_connector.u_connector.u_axi_tmr_voter_us.axi_tmr_voter_us_3m1s_inst0.m01_axi_arready
top.u_connector.u_connector.u_axi_tmr_voter_us.axi_tmr_voter_us_3m1s_inst0.m01_axi_rid
top.u_connector.u_connector.u_axi_tmr_voter_us.axi_tmr_voter_us_3m1s_inst0.m01_axi_rdata
top.u_connector.u_connector.u_axi_tmr_voter_us.axi_tmr_voter_us_3m1s_inst0.m01_axi_rresp
top.u_connector.u_connector.u_axi_tmr_voter_us.axi_tmr_voter_us_3m1s_inst0.m01_axi_rlast
top.u_connector.u_connector.u_axi_tmr_voter_us.axi_tmr_voter_us_3m1s_inst0.m01_axi_ruser
top.u_connector.u_connector.u_axi_tmr_voter_us.axi_tmr_voter_us_3m1s_inst0.m01_axi_rvalid
top.u_connector.u_connector.u_axi_tmr_voter_us.axi_tmr_voter_us_3m1s_inst0.m01_axi_rready
top.u_connector.u_connector.u_axi_tmr_voter_us.axi_tmr_voter_us_3m1s_inst0.m02_axi_awid
top.u_connector.u_connector.u_axi_tmr_voter_us.axi_tmr_voter_us_3m1s_inst0.m02_axi_awaddr
top.u_connector.u_connector.u_axi_tmr_voter_us.axi_tmr_voter_us_3m1s_inst0.m02_axi_awlen
top.u_connector.u_connector.u_axi_tmr_voter_us.axi_tmr_voter_us_3m1s_inst0.m02_axi_awsize
top.u_connector.u_connector.u_axi_tmr_voter_us.axi_tmr_voter_us_3m1s_inst0.m02_axi_awburst
top.u_connector.u_connector.u_axi_tmr_voter_us.axi_tmr_voter_us_3m1s_inst0.m02_axi_awlock
top.u_connector.u_connector.u_axi_tmr_voter_us.axi_tmr_voter_us_3m1s_inst0.m02_axi_awcache
top.u_connector.u_connector.u_axi_tmr_voter_us.axi_tmr_voter_us_3m1s_inst0.m02_axi_awprot
top.u_connector.u_connector.u_axi_tmr_voter_us.axi_tmr_voter_us_3m1s_inst0.m02_axi_awqos
top.u_connector.u_connector.u_axi_tmr_voter_us.axi_tmr_voter_us_3m1s_inst0.m02_axi_awuser
top.u_connector.u_connector.u_axi_tmr_voter_us.axi_tmr_voter_us_3m1s_inst0.m02_axi_awvalid
top.u_connector.u_connector.u_axi_tmr_voter_us.axi_tmr_voter_us_3m1s_inst0.m02_axi_awready
top.u_connector.u_connector.u_axi_tmr_voter_us.axi_tmr_voter_us_3m1s_inst0.m02_axi_wdata
top.u_connector.u_connector.u_axi_tmr_voter_us.axi_tmr_voter_us_3m1s_inst0.m02_axi_wstrb
top.u_connector.u_connector.u_axi_tmr_voter_us.axi_tmr_voter_us_3m1s_inst0.m02_axi_wlast
top.u_connector.u_connector.u_axi_tmr_voter_us.axi_tmr_voter_us_3m1s_inst0.m02_axi_wuser
top.u_connector.u_connector.u_axi_tmr_voter_us.axi_tmr_voter_us_3m1s_inst0.m02_axi_wvalid
top.u_connector.u_connector.u_axi_tmr_voter_us.axi_tmr_voter_us_3m1s_inst0.m02_axi_wready
top.u_connector.u_connector.u_axi_tmr_voter_us.axi_tmr_voter_us_3m1s_inst0.m02_axi_bid
top.u_connector.u_connector.u_axi_tmr_voter_us.axi_tmr_voter_us_3m1s_inst0.m02_axi_bresp
top.u_connector.u_connector.u_axi_tmr_voter_us.axi_tmr_voter_us_3m1s_inst0.m02_axi_buser
top.u_connector.u_connector.u_axi_tmr_voter_us.axi_tmr_voter_us_3m1s_inst0.m02_axi_bvalid
top.u_connector.u_connector.u_axi_tmr_voter_us.axi_tmr_voter_us_3m1s_inst0.m02_axi_bready
top.u_connector.u_connector.u_axi_tmr_voter_us.axi_tmr_voter_us_3m1s_inst0.m02_axi_arid
top.u_connector.u_connector.u_axi_tmr_voter_us.axi_tmr_voter_us_3m1s_inst0.m02_axi_araddr
top.u_connector.u_connector.u_axi_tmr_voter_us.axi_tmr_voter_us_3m1s_inst0.m02_axi_arlen
top.u_connector.u_connector.u_axi_tmr_voter_us.axi_tmr_voter_us_3m1s_inst0.m02_axi_arsize
top.u_connector.u_connector.u_axi_tmr_voter_us.axi_tmr_voter_us_3m1s_inst0.m02_axi_arburst
top.u_connector.u_connector.u_axi_tmr_voter_us.axi_tmr_voter_us_3m1s_inst0.m02_axi_arlock
top.u_connector.u_connector.u_axi_tmr_voter_us.axi_tmr_voter_us_3m1s_inst0.m02_axi_arcache
top.u_connector.u_connector.u_axi_tmr_voter_us.axi_tmr_voter_us_3m1s_inst0.m02_axi_arprot
top.u_connector.u_connector.u_axi_tmr_voter_us.axi_tmr_voter_us_3m1s_inst0.m02_axi_arqos
top.u_connector.u_connector.u_axi_tmr_voter_us.axi_tmr_voter_us_3m1s_inst0.m02_axi_aruser
top.u_connector.u_connector.u_axi_tmr_voter_us.axi_tmr_voter_us_3m1s_inst0.m02_axi_arvalid
top.u_connector.u_connector.u_axi_tmr_voter_us.axi_tmr_voter_us_3m1s_inst0.m02_axi_arready
top.u_connector.u_connector.u_axi_tmr_voter_us.axi_tmr_voter_us_3m1s_inst0.m02_axi_rid
top.u_connector.u_connector.u_axi_tmr_voter_us.axi_tmr_voter_us_3m1s_inst0.m02_axi_rdata
top.u_connector.u_connector.u_axi_tmr_voter_us.axi_tmr_voter_us_3m1s_inst0.m02_axi_rresp
top.u_connector.u_connector.u_axi_tmr_voter_us.axi_tmr_voter_us_3m1s_inst0.m02_axi_rlast
top.u_connector.u_connector.u_axi_tmr_voter_us.axi_tmr_voter_us_3m1s_inst0.m02_axi_ruser
top.u_connector.u_connector.u_axi_tmr_voter_us.axi_tmr_voter_us_3m1s_inst0.m02_axi_rvalid
top.u_connector.u_connector.u_axi_tmr_voter_us.axi_tmr_voter_us_3m1s_inst0.m02_axi_rready
top.u_connector.u_connector.u_axi_tmr_voter_us.axi_tmr_voter_us_3m1s_inst0.u_awready.d0
top.u_connector.u_connector.u_axi_tmr_voter_us.axi_tmr_voter_us_3m1s_inst0.u_awready.d1
top.u_connector.u_connector.u_axi_tmr_voter_us.axi_tmr_voter_us_3m1s_inst0.u_awready.d2
top.u_connector.u_connector.u_axi_tmr_voter_us.axi_tmr_voter_us_3m1s_inst0.u_awready.d_out
top.u_connector.u_connector.u_axi_tmr_voter_us.axi_tmr_voter_us_3m1s_inst0.u_awready.err_flag
top.u_connector.u_connector.u_axi_tmr_voter_us.axi_tmr_voter_us_3m1s_inst0.u_awready.err_d0
top.u_connector.u_connector.u_axi_tmr_voter_us.axi_tmr_voter_us_3m1s_inst0.u_awready.err_d1
top.u_connector.u_connector.u_axi_tmr_voter_us.axi_tmr_voter_us_3m1s_inst0.u_awready.err_d2
top.u_connector.u_connector.u_axi_tmr_voter_us.axi_tmr_voter_us_3m1s_inst0.u_wready.d0
top.u_connector.u_connector.u_axi_tmr_voter_us.axi_tmr_voter_us_3m1s_inst0.u_wready.d1
top.u_connector.u_connector.u_axi_tmr_voter_us.axi_tmr_voter_us_3m1s_inst0.u_wready.d2
top.u_connector.u_connector.u_axi_tmr_voter_us.axi_tmr_voter_us_3m1s_inst0.u_wready.d_out
top.u_connector.u_connector.u_axi_tmr_voter_us.axi_tmr_voter_us_3m1s_inst0.u_wready.err_flag
top.u_connector.u_connector.u_axi_tmr_voter_us.axi_tmr_voter_us_3m1s_inst0.u_wready.err_d0
top.u_connector.u_connector.u_axi_tmr_voter_us.axi_tmr_voter_us_3m1s_inst0.u_wready.err_d1
top.u_connector.u_connector.u_axi_tmr_voter_us.axi_tmr_voter_us_3m1s_inst0.u_wready.err_d2
top.u_connector.u_connector.u_axi_tmr_voter_us.axi_tmr_voter_us_3m1s_inst0.u_bvalid.d0
top.u_connector.u_connector.u_axi_tmr_voter_us.axi_tmr_voter_us_3m1s_inst0.u_bvalid.d1
top.u_connector.u_connector.u_axi_tmr_voter_us.axi_tmr_voter_us_3m1s_inst0.u_bvalid.d2
top.u_connector.u_connector.u_axi_tmr_voter_us.axi_tmr_voter_us_3m1s_inst0.u_bvalid.d_out
top.u_connector.u_connector.u_axi_tmr_voter_us.axi_tmr_voter_us_3m1s_inst0.u_bvalid.err_flag
top.u_connector.u_connector.u_axi_tmr_voter_us.axi_tmr_voter_us_3m1s_inst0.u_bvalid.err_d0
top.u_connector.u_connector.u_axi_tmr_voter_us.axi_tmr_voter_us_3m1s_inst0.u_bvalid.err_d1
top.u_connector.u_connector.u_axi_tmr_voter_us.axi_tmr_voter_us_3m1s_inst0.u_bvalid.err_d2
top.u_connector.u_connector.u_axi_tmr_voter_us.axi_tmr_voter_us_3m1s_inst0.u_arready.d0
top.u_connector.u_connector.u_axi_tmr_voter_us.axi_tmr_voter_us_3m1s_inst0.u_arready.d1
top.u_connector.u_connector.u_axi_tmr_voter_us.axi_tmr_voter_us_3m1s_inst0.u_arready.d2
top.u_connector.u_connector.u_axi_tmr_voter_us.axi_tmr_voter_us_3m1s_inst0.u_arready.d_out
top.u_connector.u_connector.u_axi_tmr_voter_us.axi_tmr_voter_us_3m1s_inst0.u_arready.err_flag
top.u_connector.u_connector.u_axi_tmr_voter_us.axi_tmr_voter_us_3m1s_inst0.u_arready.err_d0
top.u_connector.u_connector.u_axi_tmr_voter_us.axi_tmr_voter_us_3m1s_inst0.u_arready.err_d1
top.u_connector.u_connector.u_axi_tmr_voter_us.axi_tmr_voter_us_3m1s_inst0.u_arready.err_d2
top.u_connector.u_connector.u_axi_tmr_voter_us.axi_tmr_voter_us_3m1s_inst0.u_rlast.d0
top.u_connector.u_connector.u_axi_tmr_voter_us.axi_tmr_voter_us_3m1s_inst0.u_rlast.d1
top.u_connector.u_connector.u_axi_tmr_voter_us.axi_tmr_voter_us_3m1s_inst0.u_rlast.d2
top.u_connector.u_connector.u_axi_tmr_voter_us.axi_tmr_voter_us_3m1s_inst0.u_rlast.d_out
top.u_connector.u_connector.u_axi_tmr_voter_us.axi_tmr_voter_us_3m1s_inst0.u_rlast.err_flag
top.u_connector.u_connector.u_axi_tmr_voter_us.axi_tmr_voter_us_3m1s_inst0.u_rlast.err_d0
top.u_connector.u_connector.u_axi_tmr_voter_us.axi_tmr_voter_us_3m1s_inst0.u_rlast.err_d1
top.u_connector.u_connector.u_axi_tmr_voter_us.axi_tmr_voter_us_3m1s_inst0.u_rlast.err_d2
top.u_connector.u_connector.u_axi_tmr_voter_us.axi_tmr_voter_us_3m1s_inst0.u_rvalid.d0
top.u_connector.u_connector.u_axi_tmr_voter_us.axi_tmr_voter_us_3m1s_inst0.u_rvalid.d1
top.u_connector.u_connector.u_axi_tmr_voter_us.axi_tmr_voter_us_3m1s_inst0.u_rvalid.d2
top.u_connector.u_connector.u_axi_tmr_voter_us.axi_tmr_voter_us_3m1s_inst0.u_rvalid.d_out
top.u_connector.u_connector.u_axi_tmr_voter_us.axi_tmr_voter_us_3m1s_inst0.u_rvalid.err_flag
top.u_connector.u_connector.u_axi_tmr_voter_us.axi_tmr_voter_us_3m1s_inst0.u_rvalid.err_d0
top.u_connector.u_connector.u_axi_tmr_voter_us.axi_tmr_voter_us_3m1s_inst0.u_rvalid.err_d1
top.u_connector.u_connector.u_axi_tmr_voter_us.axi_tmr_voter_us_3m1s_inst0.u_rvalid.err_d2
top.u_connector.u_connector.u_axi_tmr_voter_us.axi_tmr_voter_us_3m1s_inst0.genblk1[0].u_bid.d0
top.u_connector.u_connector.u_axi_tmr_voter_us.axi_tmr_voter_us_3m1s_inst0.genblk1[0].u_bid.d1
top.u_connector.u_connector.u_axi_tmr_voter_us.axi_tmr_voter_us_3m1s_inst0.genblk1[0].u_bid.d2
top.u_connector.u_connector.u_axi_tmr_voter_us.axi_tmr_voter_us_3m1s_inst0.genblk1[0].u_bid.d_out
top.u_connector.u_connector.u_axi_tmr_voter_us.axi_tmr_voter_us_3m1s_inst0.genblk1[0].u_bid.err_flag
top.u_connector.u_connector.u_axi_tmr_voter_us.axi_tmr_voter_us_3m1s_inst0.genblk1[0].u_bid.err_d0
top.u_connector.u_connector.u_axi_tmr_voter_us.axi_tmr_voter_us_3m1s_inst0.genblk1[0].u_bid.err_d1
top.u_connector.u_connector.u_axi_tmr_voter_us.axi_tmr_voter_us_3m1s_inst0.genblk1[0].u_bid.err_d2
top.u_connector.u_connector.u_axi_tmr_voter_us.axi_tmr_voter_us_3m1s_inst0.genblk1[1].u_bid.d0
top.u_connector.u_connector.u_axi_tmr_voter_us.axi_tmr_voter_us_3m1s_inst0.genblk1[1].u_bid.d1
top.u_connector.u_connector.u_axi_tmr_voter_us.axi_tmr_voter_us_3m1s_inst0.genblk1[1].u_bid.d2
top.u_connector.u_connector.u_axi_tmr_voter_us.axi_tmr_voter_us_3m1s_inst0.genblk1[1].u_bid.d_out
top.u_connector.u_connector.u_axi_tmr_voter_us.axi_tmr_voter_us_3m1s_inst0.genblk1[1].u_bid.err_flag
top.u_connector.u_connector.u_axi_tmr_voter_us.axi_tmr_voter_us_3m1s_inst0.genblk1[1].u_bid.err_d0
top.u_connector.u_connector.u_axi_tmr_voter_us.axi_tmr_voter_us_3m1s_inst0.genblk1[1].u_bid.err_d1
top.u_connector.u_connector.u_axi_tmr_voter_us.axi_tmr_voter_us_3m1s_inst0.genblk1[1].u_bid.err_d2
top.u_connector.u_connector.u_axi_tmr_voter_us.axi_tmr_voter_us_3m1s_inst0.genblk1[2].u_bid.d0
top.u_connector.u_connector.u_axi_tmr_voter_us.axi_tmr_voter_us_3m1s_inst0.genblk1[2].u_bid.d1
top.u_connector.u_connector.u_axi_tmr_voter_us.axi_tmr_voter_us_3m1s_inst0.genblk1[2].u_bid.d2
top.u_connector.u_connector.u_axi_tmr_voter_us.axi_tmr_voter_us_3m1s_inst0.genblk1[2].u_bid.d_out
top.u_connector.u_connector.u_axi_tmr_voter_us.axi_tmr_voter_us_3m1s_inst0.genblk1[2].u_bid.err_flag
top.u_connector.u_connector.u_axi_tmr_voter_us.axi_tmr_voter_us_3m1s_inst0.genblk1[2].u_bid.err_d0
top.u_connector.u_connector.u_axi_tmr_voter_us.axi_tmr_voter_us_3m1s_inst0.genblk1[2].u_bid.err_d1
top.u_connector.u_connector.u_axi_tmr_voter_us.axi_tmr_voter_us_3m1s_inst0.genblk1[2].u_bid.err_d2
top.u_connector.u_connector.u_axi_tmr_voter_us.axi_tmr_voter_us_3m1s_inst0.genblk1[3].u_bid.d0
top.u_connector.u_connector.u_axi_tmr_voter_us.axi_tmr_voter_us_3m1s_inst0.genblk1[3].u_bid.d1
top.u_connector.u_connector.u_axi_tmr_voter_us.axi_tmr_voter_us_3m1s_inst0.genblk1[3].u_bid.d2
top.u_connector.u_connector.u_axi_tmr_voter_us.axi_tmr_voter_us_3m1s_inst0.genblk1[3].u_bid.d_out
top.u_connector.u_connector.u_axi_tmr_voter_us.axi_tmr_voter_us_3m1s_inst0.genblk1[3].u_bid.err_flag
top.u_connector.u_connector.u_axi_tmr_voter_us.axi_tmr_voter_us_3m1s_inst0.genblk1[3].u_bid.err_d0
top.u_connector.u_connector.u_axi_tmr_voter_us.axi_tmr_voter_us_3m1s_inst0.genblk1[3].u_bid.err_d1
top.u_connector.u_connector.u_axi_tmr_voter_us.axi_tmr_voter_us_3m1s_inst0.genblk1[3].u_bid.err_d2
top.u_connector.u_connector.u_axi_tmr_voter_us.axi_tmr_voter_us_3m1s_inst0.genblk1[4].u_bid.d0
top.u_connector.u_connector.u_axi_tmr_voter_us.axi_tmr_voter_us_3m1s_inst0.genblk1[4].u_bid.d1
top.u_connector.u_connector.u_axi_tmr_voter_us.axi_tmr_voter_us_3m1s_inst0.genblk1[4].u_bid.d2
top.u_connector.u_connector.u_axi_tmr_voter_us.axi_tmr_voter_us_3m1s_inst0.genblk1[4].u_bid.d_out
top.u_connector.u_connector.u_axi_tmr_voter_us.axi_tmr_voter_us_3m1s_inst0.genblk1[4].u_bid.err_flag
top.u_connector.u_connector.u_axi_tmr_voter_us.axi_tmr_voter_us_3m1s_inst0.genblk1[4].u_bid.err_d0
top.u_connector.u_connector.u_axi_tmr_voter_us.axi_tmr_voter_us_3m1s_inst0.genblk1[4].u_bid.err_d1
top.u_connector.u_connector.u_axi_tmr_voter_us.axi_tmr_voter_us_3m1s_inst0.genblk1[4].u_bid.err_d2
top.u_connector.u_connector.u_axi_tmr_voter_us.axi_tmr_voter_us_3m1s_inst0.genblk1[5].u_bid.d0
top.u_connector.u_connector.u_axi_tmr_voter_us.axi_tmr_voter_us_3m1s_inst0.genblk1[5].u_bid.d1
top.u_connector.u_connector.u_axi_tmr_voter_us.axi_tmr_voter_us_3m1s_inst0.genblk1[5].u_bid.d2
top.u_connector.u_connector.u_axi_tmr_voter_us.axi_tmr_voter_us_3m1s_inst0.genblk1[5].u_bid.d_out
top.u_connector.u_connector.u_axi_tmr_voter_us.axi_tmr_voter_us_3m1s_inst0.genblk1[5].u_bid.err_flag
top.u_connector.u_connector.u_axi_tmr_voter_us.axi_tmr_voter_us_3m1s_inst0.genblk1[5].u_bid.err_d0
top.u_connector.u_connector.u_axi_tmr_voter_us.axi_tmr_voter_us_3m1s_inst0.genblk1[5].u_bid.err_d1
top.u_connector.u_connector.u_axi_tmr_voter_us.axi_tmr_voter_us_3m1s_inst0.genblk1[5].u_bid.err_d2
top.u_connector.u_connector.u_axi_tmr_voter_us.axi_tmr_voter_us_3m1s_inst0.genblk1[6].u_bid.d0
top.u_connector.u_connector.u_axi_tmr_voter_us.axi_tmr_voter_us_3m1s_inst0.genblk1[6].u_bid.d1
top.u_connector.u_connector.u_axi_tmr_voter_us.axi_tmr_voter_us_3m1s_inst0.genblk1[6].u_bid.d2
top.u_connector.u_connector.u_axi_tmr_voter_us.axi_tmr_voter_us_3m1s_inst0.genblk1[6].u_bid.d_out
top.u_connector.u_connector.u_axi_tmr_voter_us.axi_tmr_voter_us_3m1s_inst0.genblk1[6].u_bid.err_flag
top.u_connector.u_connector.u_axi_tmr_voter_us.axi_tmr_voter_us_3m1s_inst0.genblk1[6].u_bid.err_d0
top.u_connector.u_connector.u_axi_tmr_voter_us.axi_tmr_voter_us_3m1s_inst0.genblk1[6].u_bid.err_d1
top.u_connector.u_connector.u_axi_tmr_voter_us.axi_tmr_voter_us_3m1s_inst0.genblk1[6].u_bid.err_d2
top.u_connector.u_connector.u_axi_tmr_voter_us.axi_tmr_voter_us_3m1s_inst0.genblk1[7].u_bid.d0
top.u_connector.u_connector.u_axi_tmr_voter_us.axi_tmr_voter_us_3m1s_inst0.genblk1[7].u_bid.d1
top.u_connector.u_connector.u_axi_tmr_voter_us.axi_tmr_voter_us_3m1s_inst0.genblk1[7].u_bid.d2
top.u_connector.u_connector.u_axi_tmr_voter_us.axi_tmr_voter_us_3m1s_inst0.genblk1[7].u_bid.d_out
top.u_connector.u_connector.u_axi_tmr_voter_us.axi_tmr_voter_us_3m1s_inst0.genblk1[7].u_bid.err_flag
top.u_connector.u_connector.u_axi_tmr_voter_us.axi_tmr_voter_us_3m1s_inst0.genblk1[7].u_bid.err_d0
top.u_connector.u_connector.u_axi_tmr_voter_us.axi_tmr_voter_us_3m1s_inst0.genblk1[7].u_bid.err_d1
top.u_connector.u_connector.u_axi_tmr_voter_us.axi_tmr_voter_us_3m1s_inst0.genblk1[7].u_bid.err_d2
top.u_connector.u_connector.u_axi_tmr_voter_us.axi_tmr_voter_us_3m1s_inst0.genblk2[0].u_bresp.d0
top.u_connector.u_connector.u_axi_tmr_voter_us.axi_tmr_voter_us_3m1s_inst0.genblk2[0].u_bresp.d1
top.u_connector.u_connector.u_axi_tmr_voter_us.axi_tmr_voter_us_3m1s_inst0.genblk2[0].u_bresp.d2
top.u_connector.u_connector.u_axi_tmr_voter_us.axi_tmr_voter_us_3m1s_inst0.genblk2[0].u_bresp.d_out
top.u_connector.u_connector.u_axi_tmr_voter_us.axi_tmr_voter_us_3m1s_inst0.genblk2[0].u_bresp.err_flag
top.u_connector.u_connector.u_axi_tmr_voter_us.axi_tmr_voter_us_3m1s_inst0.genblk2[0].u_bresp.err_d0
top.u_connector.u_connector.u_axi_tmr_voter_us.axi_tmr_voter_us_3m1s_inst0.genblk2[0].u_bresp.err_d1
top.u_connector.u_connector.u_axi_tmr_voter_us.axi_tmr_voter_us_3m1s_inst0.genblk2[0].u_bresp.err_d2
top.u_connector.u_connector.u_axi_tmr_voter_us.axi_tmr_voter_us_3m1s_inst0.genblk2[1].u_bresp.d0
top.u_connector.u_connector.u_axi_tmr_voter_us.axi_tmr_voter_us_3m1s_inst0.genblk2[1].u_bresp.d1
top.u_connector.u_connector.u_axi_tmr_voter_us.axi_tmr_voter_us_3m1s_inst0.genblk2[1].u_bresp.d2
top.u_connector.u_connector.u_axi_tmr_voter_us.axi_tmr_voter_us_3m1s_inst0.genblk2[1].u_bresp.d_out
top.u_connector.u_connector.u_axi_tmr_voter_us.axi_tmr_voter_us_3m1s_inst0.genblk2[1].u_bresp.err_flag
top.u_connector.u_connector.u_axi_tmr_voter_us.axi_tmr_voter_us_3m1s_inst0.genblk2[1].u_bresp.err_d0
top.u_connector.u_connector.u_axi_tmr_voter_us.axi_tmr_voter_us_3m1s_inst0.genblk2[1].u_bresp.err_d1
top.u_connector.u_connector.u_axi_tmr_voter_us.axi_tmr_voter_us_3m1s_inst0.genblk2[1].u_bresp.err_d2
top.u_connector.u_connector.u_axi_tmr_voter_us.axi_tmr_voter_us_3m1s_inst0.genblk3[0].u_buser.d0
top.u_connector.u_connector.u_axi_tmr_voter_us.axi_tmr_voter_us_3m1s_inst0.genblk3[0].u_buser.d1
top.u_connector.u_connector.u_axi_tmr_voter_us.axi_tmr_voter_us_3m1s_inst0.genblk3[0].u_buser.d2
top.u_connector.u_connector.u_axi_tmr_voter_us.axi_tmr_voter_us_3m1s_inst0.genblk3[0].u_buser.d_out
top.u_connector.u_connector.u_axi_tmr_voter_us.axi_tmr_voter_us_3m1s_inst0.genblk3[0].u_buser.err_flag
top.u_connector.u_connector.u_axi_tmr_voter_us.axi_tmr_voter_us_3m1s_inst0.genblk3[0].u_buser.err_d0
top.u_connector.u_connector.u_axi_tmr_voter_us.axi_tmr_voter_us_3m1s_inst0.genblk3[0].u_buser.err_d1
top.u_connector.u_connector.u_axi_tmr_voter_us.axi_tmr_voter_us_3m1s_inst0.genblk3[0].u_buser.err_d2
top.u_connector.u_connector.u_axi_tmr_voter_us.axi_tmr_voter_us_3m1s_inst0.genblk4[0].u_rid.d0
top.u_connector.u_connector.u_axi_tmr_voter_us.axi_tmr_voter_us_3m1s_inst0.genblk4[0].u_rid.d1
top.u_connector.u_connector.u_axi_tmr_voter_us.axi_tmr_voter_us_3m1s_inst0.genblk4[0].u_rid.d2
top.u_connector.u_connector.u_axi_tmr_voter_us.axi_tmr_voter_us_3m1s_inst0.genblk4[0].u_rid.d_out
top.u_connector.u_connector.u_axi_tmr_voter_us.axi_tmr_voter_us_3m1s_inst0.genblk4[0].u_rid.err_flag
top.u_connector.u_connector.u_axi_tmr_voter_us.axi_tmr_voter_us_3m1s_inst0.genblk4[0].u_rid.err_d0
top.u_connector.u_connector.u_axi_tmr_voter_us.axi_tmr_voter_us_3m1s_inst0.genblk4[0].u_rid.err_d1
top.u_connector.u_connector.u_axi_tmr_voter_us.axi_tmr_voter_us_3m1s_inst0.genblk4[0].u_rid.err_d2
top.u_connector.u_connector.u_axi_tmr_voter_us.axi_tmr_voter_us_3m1s_inst0.genblk4[1].u_rid.d0
top.u_connector.u_connector.u_axi_tmr_voter_us.axi_tmr_voter_us_3m1s_inst0.genblk4[1].u_rid.d1
top.u_connector.u_connector.u_axi_tmr_voter_us.axi_tmr_voter_us_3m1s_inst0.genblk4[1].u_rid.d2
top.u_connector.u_connector.u_axi_tmr_voter_us.axi_tmr_voter_us_3m1s_inst0.genblk4[1].u_rid.d_out
top.u_connector.u_connector.u_axi_tmr_voter_us.axi_tmr_voter_us_3m1s_inst0.genblk4[1].u_rid.err_flag
top.u_connector.u_connector.u_axi_tmr_voter_us.axi_tmr_voter_us_3m1s_inst0.genblk4[1].u_rid.err_d0
top.u_connector.u_connector.u_axi_tmr_voter_us.axi_tmr_voter_us_3m1s_inst0.genblk4[1].u_rid.err_d1
top.u_connector.u_connector.u_axi_tmr_voter_us.axi_tmr_voter_us_3m1s_inst0.genblk4[1].u_rid.err_d2
top.u_connector.u_connector.u_axi_tmr_voter_us.axi_tmr_voter_us_3m1s_inst0.genblk4[2].u_rid.d0
top.u_connector.u_connector.u_axi_tmr_voter_us.axi_tmr_voter_us_3m1s_inst0.genblk4[2].u_rid.d1
top.u_connector.u_connector.u_axi_tmr_voter_us.axi_tmr_voter_us_3m1s_inst0.genblk4[2].u_rid.d2
top.u_connector.u_connector.u_axi_tmr_voter_us.axi_tmr_voter_us_3m1s_inst0.genblk4[2].u_rid.d_out
top.u_connector.u_connector.u_axi_tmr_voter_us.axi_tmr_voter_us_3m1s_inst0.genblk4[2].u_rid.err_flag
top.u_connector.u_connector.u_axi_tmr_voter_us.axi_tmr_voter_us_3m1s_inst0.genblk4[2].u_rid.err_d0
top.u_connector.u_connector.u_axi_tmr_voter_us.axi_tmr_voter_us_3m1s_inst0.genblk4[2].u_rid.err_d1
top.u_connector.u_connector.u_axi_tmr_voter_us.axi_tmr_voter_us_3m1s_inst0.genblk4[2].u_rid.err_d2
top.u_connector.u_connector.u_axi_tmr_voter_us.axi_tmr_voter_us_3m1s_inst0.genblk4[3].u_rid.d0
top.u_connector.u_connector.u_axi_tmr_voter_us.axi_tmr_voter_us_3m1s_inst0.genblk4[3].u_rid.d1
top.u_connector.u_connector.u_axi_tmr_voter_us.axi_tmr_voter_us_3m1s_inst0.genblk4[3].u_rid.d2
top.u_connector.u_connector.u_axi_tmr_voter_us.axi_tmr_voter_us_3m1s_inst0.genblk4[3].u_rid.d_out
top.u_connector.u_connector.u_axi_tmr_voter_us.axi_tmr_voter_us_3m1s_inst0.genblk4[3].u_rid.err_flag
top.u_connector.u_connector.u_axi_tmr_voter_us.axi_tmr_voter_us_3m1s_inst0.genblk4[3].u_rid.err_d0
top.u_connector.u_connector.u_axi_tmr_voter_us.axi_tmr_voter_us_3m1s_inst0.genblk4[3].u_rid.err_d1
top.u_connector.u_connector.u_axi_tmr_voter_us.axi_tmr_voter_us_3m1s_inst0.genblk4[3].u_rid.err_d2
top.u_connector.u_connector.u_axi_tmr_voter_us.axi_tmr_voter_us_3m1s_inst0.genblk4[4].u_rid.d0
top.u_connector.u_connector.u_axi_tmr_voter_us.axi_tmr_voter_us_3m1s_inst0.genblk4[4].u_rid.d1
top.u_connector.u_connector.u_axi_tmr_voter_us.axi_tmr_voter_us_3m1s_inst0.genblk4[4].u_rid.d2
top.u_connector.u_connector.u_axi_tmr_voter_us.axi_tmr_voter_us_3m1s_inst0.genblk4[4].u_rid.d_out
top.u_connector.u_connector.u_axi_tmr_voter_us.axi_tmr_voter_us_3m1s_inst0.genblk4[4].u_rid.err_flag
top.u_connector.u_connector.u_axi_tmr_voter_us.axi_tmr_voter_us_3m1s_inst0.genblk4[4].u_rid.err_d0
top.u_connector.u_connector.u_axi_tmr_voter_us.axi_tmr_voter_us_3m1s_inst0.genblk4[4].u_rid.err_d1
top.u_connector.u_connector.u_axi_tmr_voter_us.axi_tmr_voter_us_3m1s_inst0.genblk4[4].u_rid.err_d2
top.u_connector.u_connector.u_axi_tmr_voter_us.axi_tmr_voter_us_3m1s_inst0.genblk4[5].u_rid.d0
top.u_connector.u_connector.u_axi_tmr_voter_us.axi_tmr_voter_us_3m1s_inst0.genblk4[5].u_rid.d1
top.u_connector.u_connector.u_axi_tmr_voter_us.axi_tmr_voter_us_3m1s_inst0.genblk4[5].u_rid.d2
top.u_connector.u_connector.u_axi_tmr_voter_us.axi_tmr_voter_us_3m1s_inst0.genblk4[5].u_rid.d_out
top.u_connector.u_connector.u_axi_tmr_voter_us.axi_tmr_voter_us_3m1s_inst0.genblk4[5].u_rid.err_flag
top.u_connector.u_connector.u_axi_tmr_voter_us.axi_tmr_voter_us_3m1s_inst0.genblk4[5].u_rid.err_d0
top.u_connector.u_connector.u_axi_tmr_voter_us.axi_tmr_voter_us_3m1s_inst0.genblk4[5].u_rid.err_d1
top.u_connector.u_connector.u_axi_tmr_voter_us.axi_tmr_voter_us_3m1s_inst0.genblk4[5].u_rid.err_d2
top.u_connector.u_connector.u_axi_tmr_voter_us.axi_tmr_voter_us_3m1s_inst0.genblk4[6].u_rid.d0
top.u_connector.u_connector.u_axi_tmr_voter_us.axi_tmr_voter_us_3m1s_inst0.genblk4[6].u_rid.d1
top.u_connector.u_connector.u_axi_tmr_voter_us.axi_tmr_voter_us_3m1s_inst0.genblk4[6].u_rid.d2
top.u_connector.u_connector.u_axi_tmr_voter_us.axi_tmr_voter_us_3m1s_inst0.genblk4[6].u_rid.d_out
top.u_connector.u_connector.u_axi_tmr_voter_us.axi_tmr_voter_us_3m1s_inst0.genblk4[6].u_rid.err_flag
top.u_connector.u_connector.u_axi_tmr_voter_us.axi_tmr_voter_us_3m1s_inst0.genblk4[6].u_rid.err_d0
top.u_connector.u_connector.u_axi_tmr_voter_us.axi_tmr_voter_us_3m1s_inst0.genblk4[6].u_rid.err_d1
top.u_connector.u_connector.u_axi_tmr_voter_us.axi_tmr_voter_us_3m1s_inst0.genblk4[6].u_rid.err_d2
top.u_connector.u_connector.u_axi_tmr_voter_us.axi_tmr_voter_us_3m1s_inst0.genblk4[7].u_rid.d0
top.u_connector.u_connector.u_axi_tmr_voter_us.axi_tmr_voter_us_3m1s_inst0.genblk4[7].u_rid.d1
top.u_connector.u_connector.u_axi_tmr_voter_us.axi_tmr_voter_us_3m1s_inst0.genblk4[7].u_rid.d2
top.u_connector.u_connector.u_axi_tmr_voter_us.axi_tmr_voter_us_3m1s_inst0.genblk4[7].u_rid.d_out
top.u_connector.u_connector.u_axi_tmr_voter_us.axi_tmr_voter_us_3m1s_inst0.genblk4[7].u_rid.err_flag
top.u_connector.u_connector.u_axi_tmr_voter_us.axi_tmr_voter_us_3m1s_inst0.genblk4[7].u_rid.err_d0
top.u_connector.u_connector.u_axi_tmr_voter_us.axi_tmr_voter_us_3m1s_inst0.genblk4[7].u_rid.err_d1
top.u_connector.u_connector.u_axi_tmr_voter_us.axi_tmr_voter_us_3m1s_inst0.genblk4[7].u_rid.err_d2
top.u_connector.u_connector.u_axi_tmr_voter_us.axi_tmr_voter_us_3m1s_inst0.genblk5[0].u_rdata.d0
top.u_connector.u_connector.u_axi_tmr_voter_us.axi_tmr_voter_us_3m1s_inst0.genblk5[0].u_rdata.d1
top.u_connector.u_connector.u_axi_tmr_voter_us.axi_tmr_voter_us_3m1s_inst0.genblk5[0].u_rdata.d2
top.u_connector.u_connector.u_axi_tmr_voter_us.axi_tmr_voter_us_3m1s_inst0.genblk5[0].u_rdata.d_out
top.u_connector.u_connector.u_axi_tmr_voter_us.axi_tmr_voter_us_3m1s_inst0.genblk5[0].u_rdata.err_flag
top.u_connector.u_connector.u_axi_tmr_voter_us.axi_tmr_voter_us_3m1s_inst0.genblk5[0].u_rdata.err_d0
top.u_connector.u_connector.u_axi_tmr_voter_us.axi_tmr_voter_us_3m1s_inst0.genblk5[0].u_rdata.err_d1
top.u_connector.u_connector.u_axi_tmr_voter_us.axi_tmr_voter_us_3m1s_inst0.genblk5[0].u_rdata.err_d2
top.u_connector.u_connector.u_axi_tmr_voter_us.axi_tmr_voter_us_3m1s_inst0.genblk5[1].u_rdata.d0
top.u_connector.u_connector.u_axi_tmr_voter_us.axi_tmr_voter_us_3m1s_inst0.genblk5[1].u_rdata.d1
top.u_connector.u_connector.u_axi_tmr_voter_us.axi_tmr_voter_us_3m1s_inst0.genblk5[1].u_rdata.d2
top.u_connector.u_connector.u_axi_tmr_voter_us.axi_tmr_voter_us_3m1s_inst0.genblk5[1].u_rdata.d_out
top.u_connector.u_connector.u_axi_tmr_voter_us.axi_tmr_voter_us_3m1s_inst0.genblk5[1].u_rdata.err_flag
top.u_connector.u_connector.u_axi_tmr_voter_us.axi_tmr_voter_us_3m1s_inst0.genblk5[1].u_rdata.err_d0
top.u_connector.u_connector.u_axi_tmr_voter_us.axi_tmr_voter_us_3m1s_inst0.genblk5[1].u_rdata.err_d1
top.u_connector.u_connector.u_axi_tmr_voter_us.axi_tmr_voter_us_3m1s_inst0.genblk5[1].u_rdata.err_d2
top.u_connector.u_connector.u_axi_tmr_voter_us.axi_tmr_voter_us_3m1s_inst0.genblk5[2].u_rdata.d0
top.u_connector.u_connector.u_axi_tmr_voter_us.axi_tmr_voter_us_3m1s_inst0.genblk5[2].u_rdata.d1
top.u_connector.u_connector.u_axi_tmr_voter_us.axi_tmr_voter_us_3m1s_inst0.genblk5[2].u_rdata.d2
top.u_connector.u_connector.u_axi_tmr_voter_us.axi_tmr_voter_us_3m1s_inst0.genblk5[2].u_rdata.d_out
top.u_connector.u_connector.u_axi_tmr_voter_us.axi_tmr_voter_us_3m1s_inst0.genblk5[2].u_rdata.err_flag
top.u_connector.u_connector.u_axi_tmr_voter_us.axi_tmr_voter_us_3m1s_inst0.genblk5[2].u_rdata.err_d0
top.u_connector.u_connector.u_axi_tmr_voter_us.axi_tmr_voter_us_3m1s_inst0.genblk5[2].u_rdata.err_d1
top.u_connector.u_connector.u_axi_tmr_voter_us.axi_tmr_voter_us_3m1s_inst0.genblk5[2].u_rdata.err_d2
top.u_connector.u_connector.u_axi_tmr_voter_us.axi_tmr_voter_us_3m1s_inst0.genblk5[3].u_rdata.d0
top.u_connector.u_connector.u_axi_tmr_voter_us.axi_tmr_voter_us_3m1s_inst0.genblk5[3].u_rdata.d1
top.u_connector.u_connector.u_axi_tmr_voter_us.axi_tmr_voter_us_3m1s_inst0.genblk5[3].u_rdata.d2
top.u_connector.u_connector.u_axi_tmr_voter_us.axi_tmr_voter_us_3m1s_inst0.genblk5[3].u_rdata.d_out
top.u_connector.u_connector.u_axi_tmr_voter_us.axi_tmr_voter_us_3m1s_inst0.genblk5[3].u_rdata.err_flag
top.u_connector.u_connector.u_axi_tmr_voter_us.axi_tmr_voter_us_3m1s_inst0.genblk5[3].u_rdata.err_d0
top.u_connector.u_connector.u_axi_tmr_voter_us.axi_tmr_voter_us_3m1s_inst0.genblk5[3].u_rdata.err_d1
top.u_connector.u_connector.u_axi_tmr_voter_us.axi_tmr_voter_us_3m1s_inst0.genblk5[3].u_rdata.err_d2
top.u_connector.u_connector.u_axi_tmr_voter_us.axi_tmr_voter_us_3m1s_inst0.genblk5[4].u_rdata.d0
top.u_connector.u_connector.u_axi_tmr_voter_us.axi_tmr_voter_us_3m1s_inst0.genblk5[4].u_rdata.d1
top.u_connector.u_connector.u_axi_tmr_voter_us.axi_tmr_voter_us_3m1s_inst0.genblk5[4].u_rdata.d2
top.u_connector.u_connector.u_axi_tmr_voter_us.axi_tmr_voter_us_3m1s_inst0.genblk5[4].u_rdata.d_out
top.u_connector.u_connector.u_axi_tmr_voter_us.axi_tmr_voter_us_3m1s_inst0.genblk5[4].u_rdata.err_flag
top.u_connector.u_connector.u_axi_tmr_voter_us.axi_tmr_voter_us_3m1s_inst0.genblk5[4].u_rdata.err_d0
top.u_connector.u_connector.u_axi_tmr_voter_us.axi_tmr_voter_us_3m1s_inst0.genblk5[4].u_rdata.err_d1
top.u_connector.u_connector.u_axi_tmr_voter_us.axi_tmr_voter_us_3m1s_inst0.genblk5[4].u_rdata.err_d2
top.u_connector.u_connector.u_axi_tmr_voter_us.axi_tmr_voter_us_3m1s_inst0.genblk5[5].u_rdata.d0
top.u_connector.u_connector.u_axi_tmr_voter_us.axi_tmr_voter_us_3m1s_inst0.genblk5[5].u_rdata.d1
top.u_connector.u_connector.u_axi_tmr_voter_us.axi_tmr_voter_us_3m1s_inst0.genblk5[5].u_rdata.d2
top.u_connector.u_connector.u_axi_tmr_voter_us.axi_tmr_voter_us_3m1s_inst0.genblk5[5].u_rdata.d_out
top.u_connector.u_connector.u_axi_tmr_voter_us.axi_tmr_voter_us_3m1s_inst0.genblk5[5].u_rdata.err_flag
top.u_connector.u_connector.u_axi_tmr_voter_us.axi_tmr_voter_us_3m1s_inst0.genblk5[5].u_rdata.err_d0
top.u_connector.u_connector.u_axi_tmr_voter_us.axi_tmr_voter_us_3m1s_inst0.genblk5[5].u_rdata.err_d1
top.u_connector.u_connector.u_axi_tmr_voter_us.axi_tmr_voter_us_3m1s_inst0.genblk5[5].u_rdata.err_d2
top.u_connector.u_connector.u_axi_tmr_voter_us.axi_tmr_voter_us_3m1s_inst0.genblk5[6].u_rdata.d0
top.u_connector.u_connector.u_axi_tmr_voter_us.axi_tmr_voter_us_3m1s_inst0.genblk5[6].u_rdata.d1
top.u_connector.u_connector.u_axi_tmr_voter_us.axi_tmr_voter_us_3m1s_inst0.genblk5[6].u_rdata.d2
top.u_connector.u_connector.u_axi_tmr_voter_us.axi_tmr_voter_us_3m1s_inst0.genblk5[6].u_rdata.d_out
top.u_connector.u_connector.u_axi_tmr_voter_us.axi_tmr_voter_us_3m1s_inst0.genblk5[6].u_rdata.err_flag
top.u_connector.u_connector.u_axi_tmr_voter_us.axi_tmr_voter_us_3m1s_inst0.genblk5[6].u_rdata.err_d0
top.u_connector.u_connector.u_axi_tmr_voter_us.axi_tmr_voter_us_3m1s_inst0.genblk5[6].u_rdata.err_d1
top.u_connector.u_connector.u_axi_tmr_voter_us.axi_tmr_voter_us_3m1s_inst0.genblk5[6].u_rdata.err_d2
top.u_connector.u_connector.u_axi_tmr_voter_us.axi_tmr_voter_us_3m1s_inst0.genblk5[7].u_rdata.d0
top.u_connector.u_connector.u_axi_tmr_voter_us.axi_tmr_voter_us_3m1s_inst0.genblk5[7].u_rdata.d1
top.u_connector.u_connector.u_axi_tmr_voter_us.axi_tmr_voter_us_3m1s_inst0.genblk5[7].u_rdata.d2
top.u_connector.u_connector.u_axi_tmr_voter_us.axi_tmr_voter_us_3m1s_inst0.genblk5[7].u_rdata.d_out
top.u_connector.u_connector.u_axi_tmr_voter_us.axi_tmr_voter_us_3m1s_inst0.genblk5[7].u_rdata.err_flag
top.u_connector.u_connector.u_axi_tmr_voter_us.axi_tmr_voter_us_3m1s_inst0.genblk5[7].u_rdata.err_d0
top.u_connector.u_connector.u_axi_tmr_voter_us.axi_tmr_voter_us_3m1s_inst0.genblk5[7].u_rdata.err_d1
top.u_connector.u_connector.u_axi_tmr_voter_us.axi_tmr_voter_us_3m1s_inst0.genblk5[7].u_rdata.err_d2
top.u_connector.u_connector.u_axi_tmr_voter_us.axi_tmr_voter_us_3m1s_inst0.genblk5[8].u_rdata.d0
top.u_connector.u_connector.u_axi_tmr_voter_us.axi_tmr_voter_us_3m1s_inst0.genblk5[8].u_rdata.d1
top.u_connector.u_connector.u_axi_tmr_voter_us.axi_tmr_voter_us_3m1s_inst0.genblk5[8].u_rdata.d2
top.u_connector.u_connector.u_axi_tmr_voter_us.axi_tmr_voter_us_3m1s_inst0.genblk5[8].u_rdata.d_out
top.u_connector.u_connector.u_axi_tmr_voter_us.axi_tmr_voter_us_3m1s_inst0.genblk5[8].u_rdata.err_flag
top.u_connector.u_connector.u_axi_tmr_voter_us.axi_tmr_voter_us_3m1s_inst0.genblk5[8].u_rdata.err_d0
top.u_connector.u_connector.u_axi_tmr_voter_us.axi_tmr_voter_us_3m1s_inst0.genblk5[8].u_rdata.err_d1
top.u_connector.u_connector.u_axi_tmr_voter_us.axi_tmr_voter_us_3m1s_inst0.genblk5[8].u_rdata.err_d2
top.u_connector.u_connector.u_axi_tmr_voter_us.axi_tmr_voter_us_3m1s_inst0.genblk5[9].u_rdata.d0
top.u_connector.u_connector.u_axi_tmr_voter_us.axi_tmr_voter_us_3m1s_inst0.genblk5[9].u_rdata.d1
top.u_connector.u_connector.u_axi_tmr_voter_us.axi_tmr_voter_us_3m1s_inst0.genblk5[9].u_rdata.d2
top.u_connector.u_connector.u_axi_tmr_voter_us.axi_tmr_voter_us_3m1s_inst0.genblk5[9].u_rdata.d_out
top.u_connector.u_connector.u_axi_tmr_voter_us.axi_tmr_voter_us_3m1s_inst0.genblk5[9].u_rdata.err_flag
top.u_connector.u_connector.u_axi_tmr_voter_us.axi_tmr_voter_us_3m1s_inst0.genblk5[9].u_rdata.err_d0
top.u_connector.u_connector.u_axi_tmr_voter_us.axi_tmr_voter_us_3m1s_inst0.genblk5[9].u_rdata.err_d1
top.u_connector.u_connector.u_axi_tmr_voter_us.axi_tmr_voter_us_3m1s_inst0.genblk5[9].u_rdata.err_d2
top.u_connector.u_connector.u_axi_tmr_voter_us.axi_tmr_voter_us_3m1s_inst0.genblk5[10].u_rdata.d0
top.u_connector.u_connector.u_axi_tmr_voter_us.axi_tmr_voter_us_3m1s_inst0.genblk5[10].u_rdata.d1
top.u_connector.u_connector.u_axi_tmr_voter_us.axi_tmr_voter_us_3m1s_inst0.genblk5[10].u_rdata.d2
top.u_connector.u_connector.u_axi_tmr_voter_us.axi_tmr_voter_us_3m1s_inst0.genblk5[10].u_rdata.d_out
top.u_connector.u_connector.u_axi_tmr_voter_us.axi_tmr_voter_us_3m1s_inst0.genblk5[10].u_rdata.err_flag
top.u_connector.u_connector.u_axi_tmr_voter_us.axi_tmr_voter_us_3m1s_inst0.genblk5[10].u_rdata.err_d0
top.u_connector.u_connector.u_axi_tmr_voter_us.axi_tmr_voter_us_3m1s_inst0.genblk5[10].u_rdata.err_d1
top.u_connector.u_connector.u_axi_tmr_voter_us.axi_tmr_voter_us_3m1s_inst0.genblk5[10].u_rdata.err_d2
top.u_connector.u_connector.u_axi_tmr_voter_us.axi_tmr_voter_us_3m1s_inst0.genblk5[11].u_rdata.d0
top.u_connector.u_connector.u_axi_tmr_voter_us.axi_tmr_voter_us_3m1s_inst0.genblk5[11].u_rdata.d1
top.u_connector.u_connector.u_axi_tmr_voter_us.axi_tmr_voter_us_3m1s_inst0.genblk5[11].u_rdata.d2
top.u_connector.u_connector.u_axi_tmr_voter_us.axi_tmr_voter_us_3m1s_inst0.genblk5[11].u_rdata.d_out
top.u_connector.u_connector.u_axi_tmr_voter_us.axi_tmr_voter_us_3m1s_inst0.genblk5[11].u_rdata.err_flag
top.u_connector.u_connector.u_axi_tmr_voter_us.axi_tmr_voter_us_3m1s_inst0.genblk5[11].u_rdata.err_d0
top.u_connector.u_connector.u_axi_tmr_voter_us.axi_tmr_voter_us_3m1s_inst0.genblk5[11].u_rdata.err_d1
top.u_connector.u_connector.u_axi_tmr_voter_us.axi_tmr_voter_us_3m1s_inst0.genblk5[11].u_rdata.err_d2
top.u_connector.u_connector.u_axi_tmr_voter_us.axi_tmr_voter_us_3m1s_inst0.genblk5[12].u_rdata.d0
top.u_connector.u_connector.u_axi_tmr_voter_us.axi_tmr_voter_us_3m1s_inst0.genblk5[12].u_rdata.d1
top.u_connector.u_connector.u_axi_tmr_voter_us.axi_tmr_voter_us_3m1s_inst0.genblk5[12].u_rdata.d2
top.u_connector.u_connector.u_axi_tmr_voter_us.axi_tmr_voter_us_3m1s_inst0.genblk5[12].u_rdata.d_out
top.u_connector.u_connector.u_axi_tmr_voter_us.axi_tmr_voter_us_3m1s_inst0.genblk5[12].u_rdata.err_flag
top.u_connector.u_connector.u_axi_tmr_voter_us.axi_tmr_voter_us_3m1s_inst0.genblk5[12].u_rdata.err_d0
top.u_connector.u_connector.u_axi_tmr_voter_us.axi_tmr_voter_us_3m1s_inst0.genblk5[12].u_rdata.err_d1
top.u_connector.u_connector.u_axi_tmr_voter_us.axi_tmr_voter_us_3m1s_inst0.genblk5[12].u_rdata.err_d2
top.u_connector.u_connector.u_axi_tmr_voter_us.axi_tmr_voter_us_3m1s_inst0.genblk5[13].u_rdata.d0
top.u_connector.u_connector.u_axi_tmr_voter_us.axi_tmr_voter_us_3m1s_inst0.genblk5[13].u_rdata.d1
top.u_connector.u_connector.u_axi_tmr_voter_us.axi_tmr_voter_us_3m1s_inst0.genblk5[13].u_rdata.d2
top.u_connector.u_connector.u_axi_tmr_voter_us.axi_tmr_voter_us_3m1s_inst0.genblk5[13].u_rdata.d_out
top.u_connector.u_connector.u_axi_tmr_voter_us.axi_tmr_voter_us_3m1s_inst0.genblk5[13].u_rdata.err_flag
top.u_connector.u_connector.u_axi_tmr_voter_us.axi_tmr_voter_us_3m1s_inst0.genblk5[13].u_rdata.err_d0
top.u_connector.u_connector.u_axi_tmr_voter_us.axi_tmr_voter_us_3m1s_inst0.genblk5[13].u_rdata.err_d1
top.u_connector.u_connector.u_axi_tmr_voter_us.axi_tmr_voter_us_3m1s_inst0.genblk5[13].u_rdata.err_d2
top.u_connector.u_connector.u_axi_tmr_voter_us.axi_tmr_voter_us_3m1s_inst0.genblk5[14].u_rdata.d0
top.u_connector.u_connector.u_axi_tmr_voter_us.axi_tmr_voter_us_3m1s_inst0.genblk5[14].u_rdata.d1
top.u_connector.u_connector.u_axi_tmr_voter_us.axi_tmr_voter_us_3m1s_inst0.genblk5[14].u_rdata.d2
top.u_connector.u_connector.u_axi_tmr_voter_us.axi_tmr_voter_us_3m1s_inst0.genblk5[14].u_rdata.d_out
top.u_connector.u_connector.u_axi_tmr_voter_us.axi_tmr_voter_us_3m1s_inst0.genblk5[14].u_rdata.err_flag
top.u_connector.u_connector.u_axi_tmr_voter_us.axi_tmr_voter_us_3m1s_inst0.genblk5[14].u_rdata.err_d0
top.u_connector.u_connector.u_axi_tmr_voter_us.axi_tmr_voter_us_3m1s_inst0.genblk5[14].u_rdata.err_d1
top.u_connector.u_connector.u_axi_tmr_voter_us.axi_tmr_voter_us_3m1s_inst0.genblk5[14].u_rdata.err_d2
top.u_connector.u_connector.u_axi_tmr_voter_us.axi_tmr_voter_us_3m1s_inst0.genblk5[15].u_rdata.d0
top.u_connector.u_connector.u_axi_tmr_voter_us.axi_tmr_voter_us_3m1s_inst0.genblk5[15].u_rdata.d1
top.u_connector.u_connector.u_axi_tmr_voter_us.axi_tmr_voter_us_3m1s_inst0.genblk5[15].u_rdata.d2
top.u_connector.u_connector.u_axi_tmr_voter_us.axi_tmr_voter_us_3m1s_inst0.genblk5[15].u_rdata.d_out
top.u_connector.u_connector.u_axi_tmr_voter_us.axi_tmr_voter_us_3m1s_inst0.genblk5[15].u_rdata.err_flag
top.u_connector.u_connector.u_axi_tmr_voter_us.axi_tmr_voter_us_3m1s_inst0.genblk5[15].u_rdata.err_d0
top.u_connector.u_connector.u_axi_tmr_voter_us.axi_tmr_voter_us_3m1s_inst0.genblk5[15].u_rdata.err_d1
top.u_connector.u_connector.u_axi_tmr_voter_us.axi_tmr_voter_us_3m1s_inst0.genblk5[15].u_rdata.err_d2
top.u_connector.u_connector.u_axi_tmr_voter_us.axi_tmr_voter_us_3m1s_inst0.genblk5[16].u_rdata.d0
top.u_connector.u_connector.u_axi_tmr_voter_us.axi_tmr_voter_us_3m1s_inst0.genblk5[16].u_rdata.d1
top.u_connector.u_connector.u_axi_tmr_voter_us.axi_tmr_voter_us_3m1s_inst0.genblk5[16].u_rdata.d2
top.u_connector.u_connector.u_axi_tmr_voter_us.axi_tmr_voter_us_3m1s_inst0.genblk5[16].u_rdata.d_out
top.u_connector.u_connector.u_axi_tmr_voter_us.axi_tmr_voter_us_3m1s_inst0.genblk5[16].u_rdata.err_flag
top.u_connector.u_connector.u_axi_tmr_voter_us.axi_tmr_voter_us_3m1s_inst0.genblk5[16].u_rdata.err_d0
top.u_connector.u_connector.u_axi_tmr_voter_us.axi_tmr_voter_us_3m1s_inst0.genblk5[16].u_rdata.err_d1
top.u_connector.u_connector.u_axi_tmr_voter_us.axi_tmr_voter_us_3m1s_inst0.genblk5[16].u_rdata.err_d2
top.u_connector.u_connector.u_axi_tmr_voter_us.axi_tmr_voter_us_3m1s_inst0.genblk5[17].u_rdata.d0
top.u_connector.u_connector.u_axi_tmr_voter_us.axi_tmr_voter_us_3m1s_inst0.genblk5[17].u_rdata.d1
top.u_connector.u_connector.u_axi_tmr_voter_us.axi_tmr_voter_us_3m1s_inst0.genblk5[17].u_rdata.d2
top.u_connector.u_connector.u_axi_tmr_voter_us.axi_tmr_voter_us_3m1s_inst0.genblk5[17].u_rdata.d_out
top.u_connector.u_connector.u_axi_tmr_voter_us.axi_tmr_voter_us_3m1s_inst0.genblk5[17].u_rdata.err_flag
top.u_connector.u_connector.u_axi_tmr_voter_us.axi_tmr_voter_us_3m1s_inst0.genblk5[17].u_rdata.err_d0
top.u_connector.u_connector.u_axi_tmr_voter_us.axi_tmr_voter_us_3m1s_inst0.genblk5[17].u_rdata.err_d1
top.u_connector.u_connector.u_axi_tmr_voter_us.axi_tmr_voter_us_3m1s_inst0.genblk5[17].u_rdata.err_d2
top.u_connector.u_connector.u_axi_tmr_voter_us.axi_tmr_voter_us_3m1s_inst0.genblk5[18].u_rdata.d0
top.u_connector.u_connector.u_axi_tmr_voter_us.axi_tmr_voter_us_3m1s_inst0.genblk5[18].u_rdata.d1
top.u_connector.u_connector.u_axi_tmr_voter_us.axi_tmr_voter_us_3m1s_inst0.genblk5[18].u_rdata.d2
top.u_connector.u_connector.u_axi_tmr_voter_us.axi_tmr_voter_us_3m1s_inst0.genblk5[18].u_rdata.d_out
top.u_connector.u_connector.u_axi_tmr_voter_us.axi_tmr_voter_us_3m1s_inst0.genblk5[18].u_rdata.err_flag
top.u_connector.u_connector.u_axi_tmr_voter_us.axi_tmr_voter_us_3m1s_inst0.genblk5[18].u_rdata.err_d0
top.u_connector.u_connector.u_axi_tmr_voter_us.axi_tmr_voter_us_3m1s_inst0.genblk5[18].u_rdata.err_d1
top.u_connector.u_connector.u_axi_tmr_voter_us.axi_tmr_voter_us_3m1s_inst0.genblk5[18].u_rdata.err_d2
top.u_connector.u_connector.u_axi_tmr_voter_us.axi_tmr_voter_us_3m1s_inst0.genblk5[19].u_rdata.d0
top.u_connector.u_connector.u_axi_tmr_voter_us.axi_tmr_voter_us_3m1s_inst0.genblk5[19].u_rdata.d1
top.u_connector.u_connector.u_axi_tmr_voter_us.axi_tmr_voter_us_3m1s_inst0.genblk5[19].u_rdata.d2
top.u_connector.u_connector.u_axi_tmr_voter_us.axi_tmr_voter_us_3m1s_inst0.genblk5[19].u_rdata.d_out
top.u_connector.u_connector.u_axi_tmr_voter_us.axi_tmr_voter_us_3m1s_inst0.genblk5[19].u_rdata.err_flag
top.u_connector.u_connector.u_axi_tmr_voter_us.axi_tmr_voter_us_3m1s_inst0.genblk5[19].u_rdata.err_d0
top.u_connector.u_connector.u_axi_tmr_voter_us.axi_tmr_voter_us_3m1s_inst0.genblk5[19].u_rdata.err_d1
top.u_connector.u_connector.u_axi_tmr_voter_us.axi_tmr_voter_us_3m1s_inst0.genblk5[19].u_rdata.err_d2
top.u_connector.u_connector.u_axi_tmr_voter_us.axi_tmr_voter_us_3m1s_inst0.genblk5[20].u_rdata.d0
top.u_connector.u_connector.u_axi_tmr_voter_us.axi_tmr_voter_us_3m1s_inst0.genblk5[20].u_rdata.d1
top.u_connector.u_connector.u_axi_tmr_voter_us.axi_tmr_voter_us_3m1s_inst0.genblk5[20].u_rdata.d2
top.u_connector.u_connector.u_axi_tmr_voter_us.axi_tmr_voter_us_3m1s_inst0.genblk5[20].u_rdata.d_out
top.u_connector.u_connector.u_axi_tmr_voter_us.axi_tmr_voter_us_3m1s_inst0.genblk5[20].u_rdata.err_flag
top.u_connector.u_connector.u_axi_tmr_voter_us.axi_tmr_voter_us_3m1s_inst0.genblk5[20].u_rdata.err_d0
top.u_connector.u_connector.u_axi_tmr_voter_us.axi_tmr_voter_us_3m1s_inst0.genblk5[20].u_rdata.err_d1
top.u_connector.u_connector.u_axi_tmr_voter_us.axi_tmr_voter_us_3m1s_inst0.genblk5[20].u_rdata.err_d2
top.u_connector.u_connector.u_axi_tmr_voter_us.axi_tmr_voter_us_3m1s_inst0.genblk5[21].u_rdata.d0
top.u_connector.u_connector.u_axi_tmr_voter_us.axi_tmr_voter_us_3m1s_inst0.genblk5[21].u_rdata.d1
top.u_connector.u_connector.u_axi_tmr_voter_us.axi_tmr_voter_us_3m1s_inst0.genblk5[21].u_rdata.d2
top.u_connector.u_connector.u_axi_tmr_voter_us.axi_tmr_voter_us_3m1s_inst0.genblk5[21].u_rdata.d_out
top.u_connector.u_connector.u_axi_tmr_voter_us.axi_tmr_voter_us_3m1s_inst0.genblk5[21].u_rdata.err_flag
top.u_connector.u_connector.u_axi_tmr_voter_us.axi_tmr_voter_us_3m1s_inst0.genblk5[21].u_rdata.err_d0
top.u_connector.u_connector.u_axi_tmr_voter_us.axi_tmr_voter_us_3m1s_inst0.genblk5[21].u_rdata.err_d1
top.u_connector.u_connector.u_axi_tmr_voter_us.axi_tmr_voter_us_3m1s_inst0.genblk5[21].u_rdata.err_d2
top.u_connector.u_connector.u_axi_tmr_voter_us.axi_tmr_voter_us_3m1s_inst0.genblk5[22].u_rdata.d0
top.u_connector.u_connector.u_axi_tmr_voter_us.axi_tmr_voter_us_3m1s_inst0.genblk5[22].u_rdata.d1
top.u_connector.u_connector.u_axi_tmr_voter_us.axi_tmr_voter_us_3m1s_inst0.genblk5[22].u_rdata.d2
top.u_connector.u_connector.u_axi_tmr_voter_us.axi_tmr_voter_us_3m1s_inst0.genblk5[22].u_rdata.d_out
top.u_connector.u_connector.u_axi_tmr_voter_us.axi_tmr_voter_us_3m1s_inst0.genblk5[22].u_rdata.err_flag
top.u_connector.u_connector.u_axi_tmr_voter_us.axi_tmr_voter_us_3m1s_inst0.genblk5[22].u_rdata.err_d0
top.u_connector.u_connector.u_axi_tmr_voter_us.axi_tmr_voter_us_3m1s_inst0.genblk5[22].u_rdata.err_d1
top.u_connector.u_connector.u_axi_tmr_voter_us.axi_tmr_voter_us_3m1s_inst0.genblk5[22].u_rdata.err_d2
top.u_connector.u_connector.u_axi_tmr_voter_us.axi_tmr_voter_us_3m1s_inst0.genblk5[23].u_rdata.d0
top.u_connector.u_connector.u_axi_tmr_voter_us.axi_tmr_voter_us_3m1s_inst0.genblk5[23].u_rdata.d1
top.u_connector.u_connector.u_axi_tmr_voter_us.axi_tmr_voter_us_3m1s_inst0.genblk5[23].u_rdata.d2
top.u_connector.u_connector.u_axi_tmr_voter_us.axi_tmr_voter_us_3m1s_inst0.genblk5[23].u_rdata.d_out
top.u_connector.u_connector.u_axi_tmr_voter_us.axi_tmr_voter_us_3m1s_inst0.genblk5[23].u_rdata.err_flag
top.u_connector.u_connector.u_axi_tmr_voter_us.axi_tmr_voter_us_3m1s_inst0.genblk5[23].u_rdata.err_d0
top.u_connector.u_connector.u_axi_tmr_voter_us.axi_tmr_voter_us_3m1s_inst0.genblk5[23].u_rdata.err_d1
top.u_connector.u_connector.u_axi_tmr_voter_us.axi_tmr_voter_us_3m1s_inst0.genblk5[23].u_rdata.err_d2
top.u_connector.u_connector.u_axi_tmr_voter_us.axi_tmr_voter_us_3m1s_inst0.genblk5[24].u_rdata.d0
top.u_connector.u_connector.u_axi_tmr_voter_us.axi_tmr_voter_us_3m1s_inst0.genblk5[24].u_rdata.d1
top.u_connector.u_connector.u_axi_tmr_voter_us.axi_tmr_voter_us_3m1s_inst0.genblk5[24].u_rdata.d2
top.u_connector.u_connector.u_axi_tmr_voter_us.axi_tmr_voter_us_3m1s_inst0.genblk5[24].u_rdata.d_out
top.u_connector.u_connector.u_axi_tmr_voter_us.axi_tmr_voter_us_3m1s_inst0.genblk5[24].u_rdata.err_flag
top.u_connector.u_connector.u_axi_tmr_voter_us.axi_tmr_voter_us_3m1s_inst0.genblk5[24].u_rdata.err_d0
top.u_connector.u_connector.u_axi_tmr_voter_us.axi_tmr_voter_us_3m1s_inst0.genblk5[24].u_rdata.err_d1
