top.u_connector.u_connector
top.u_connector.u_connector.u_axi_tmr_voter_us
top.u_connector.u_connector.u_axi_tmr_voter_us.axi_tmr_voter_us_3m1s_inst0
top.u_connector.u_connector.u_axi_tmr_voter_us.axi_tmr_voter_us_3m1s_inst0.u_awready
top.u_connector.u_connector.u_axi_tmr_voter_us.axi_tmr_voter_us_3m1s_inst0.u_wready
top.u_connector.u_connector.u_axi_tmr_voter_us.axi_tmr_voter_us_3m1s_inst0.u_bvalid
top.u_connector.u_connector.u_axi_tmr_voter_us.axi_tmr_voter_us_3m1s_inst0.u_arready
top.u_connector.u_connector.u_axi_tmr_voter_us.axi_tmr_voter_us_3m1s_inst0.u_rlast
top.u_connector.u_connector.u_axi_tmr_voter_us.axi_tmr_voter_us_3m1s_inst0.u_rvalid
top.u_connector.u_connector.u_axi_tmr_voter_us.axi_tmr_voter_us_3m1s_inst0.genblk1[0].u_bid
top.u_connector.u_connector.u_axi_tmr_voter_us.axi_tmr_voter_us_3m1s_inst0.genblk1[1].u_bid
top.u_connector.u_connector.u_axi_tmr_voter_us.axi_tmr_voter_us_3m1s_inst0.genblk1[2].u_bid
top.u_connector.u_connector.u_axi_tmr_voter_us.axi_tmr_voter_us_3m1s_inst0.genblk1[3].u_bid
top.u_connector.u_connector.u_axi_tmr_voter_us.axi_tmr_voter_us_3m1s_inst0.genblk1[4].u_bid
top.u_connector.u_connector.u_axi_tmr_voter_us.axi_tmr_voter_us_3m1s_inst0.genblk1[5].u_bid
top.u_connector.u_connector.u_axi_tmr_voter_us.axi_tmr_voter_us_3m1s_inst0.genblk1[6].u_bid
top.u_connector.u_connector.u_axi_tmr_voter_us.axi_tmr_voter_us_3m1s_inst0.genblk1[7].u_bid
top.u_connector.u_connector.u_axi_tmr_voter_us.axi_tmr_voter_us_3m1s_inst0.genblk2[0].u_bresp
top.u_connector.u_connector.u_axi_tmr_voter_us.axi_tmr_voter_us_3m1s_inst0.genblk2[1].u_bresp
top.u_connector.u_connector.u_axi_tmr_voter_us.axi_tmr_voter_us_3m1s_inst0.genblk3[0].u_buser
top.u_connector.u_connector.u_axi_tmr_voter_us.axi_tmr_voter_us_3m1s_inst0.genblk4[0].u_rid
top.u_connector.u_connector.u_axi_tmr_voter_us.axi_tmr_voter_us_3m1s_inst0.genblk4[1].u_rid
top.u_connector.u_connector.u_axi_tmr_voter_us.axi_tmr_voter_us_3m1s_inst0.genblk4[2].u_rid
top.u_connector.u_connector.u_axi_tmr_voter_us.axi_tmr_voter_us_3m1s_inst0.genblk4[3].u_rid
top.u_connector.u_connector.u_axi_tmr_voter_us.axi_tmr_voter_us_3m1s_inst0.genblk4[4].u_rid
top.u_connector.u_connector.u_axi_tmr_voter_us.axi_tmr_voter_us_3m1s_inst0.genblk4[5].u_rid
top.u_connector.u_connector.u_axi_tmr_voter_us.axi_tmr_voter_us_3m1s_inst0.genblk4[6].u_rid
top.u_connector.u_connector.u_axi_tmr_voter_us.axi_tmr_voter_us_3m1s_inst0.genblk4[7].u_rid
top.u_connector.u_connector.u_axi_tmr_voter_us.axi_tmr_voter_us_3m1s_inst0.genblk5[0].u_rdata
top.u_connector.u_connector.u_axi_tmr_voter_us.axi_tmr_voter_us_3m1s_inst0.genblk5[1].u_rdata
top.u_connector.u_connector.u_axi_tmr_voter_us.axi_tmr_voter_us_3m1s_inst0.genblk5[2].u_rdata
top.u_connector.u_connector.u_axi_tmr_voter_us.axi_tmr_voter_us_3m1s_inst0.genblk5[3].u_rdata
top.u_connector.u_connector.u_axi_tmr_voter_us.axi_tmr_voter_us_3m1s_inst0.genblk5[4].u_rdata
top.u_connector.u_connector.u_axi_tmr_voter_us.axi_tmr_voter_us_3m1s_inst0.genblk5[5].u_rdata
top.u_connector.u_connector.u_axi_tmr_voter_us.axi_tmr_voter_us_3m1s_inst0.genblk5[6].u_rdata
top.u_connector.u_connector.u_axi_tmr_voter_us.axi_tmr_voter_us_3m1s_inst0.genblk5[7].u_rdata
top.u_connector.u_connector.u_axi_tmr_voter_us.axi_tmr_voter_us_3m1s_inst0.genblk5[8].u_rdata
top.u_connector.u_connector.u_axi_tmr_voter_us.axi_tmr_voter_us_3m1s_inst0.genblk5[9].u_rdata
top.u_connector.u_connector.u_axi_tmr_voter_us.axi_tmr_voter_us_3m1s_inst0.genblk5[10].u_rdata
top.u_connector.u_connector.u_axi_tmr_voter_us.axi_tmr_voter_us_3m1s_inst0.genblk5[11].u_rdata
top.u_connector.u_connector.u_axi_tmr_voter_us.axi_tmr_voter_us_3m1s_inst0.genblk5[12].u_rdata
top.u_connector.u_connector.u_axi_tmr_voter_us.axi_tmr_voter_us_3m1s_inst0.genblk5[13].u_rdata
top.u_connector.u_connector.u_axi_tmr_voter_us.axi_tmr_voter_us_3m1s_inst0.genblk5[14].u_rdata
top.u_connector.u_connector.u_axi_tmr_voter_us.axi_tmr_voter_us_3m1s_inst0.genblk5[15].u_rdata
top.u_connector.u_connector.u_axi_tmr_voter_us.axi_tmr_voter_us_3m1s_inst0.genblk5[16].u_rdata
top.u_connector.u_connector.u_axi_tmr_voter_us.axi_tmr_voter_us_3m1s_inst0.genblk5[17].u_rdata
top.u_connector.u_connector.u_axi_tmr_voter_us.axi_tmr_voter_us_3m1s_inst0.genblk5[18].u_rdata
top.u_connector.u_connector.u_axi_tmr_voter_us.axi_tmr_voter_us_3m1s_inst0.genblk5[19].u_rdata
top.u_connector.u_connector.u_axi_tmr_voter_us.axi_tmr_voter_us_3m1s_inst0.genblk5[20].u_rdata
top.u_connector.u_connector.u_axi_tmr_voter_us.axi_tmr_voter_us_3m1s_inst0.genblk5[21].u_rdata
top.u_connector.u_connector.u_axi_tmr_voter_us.axi_tmr_voter_us_3m1s_inst0.genblk5[22].u_rdata
top.u_connector.u_connector.u_axi_tmr_voter_us.axi_tmr_voter_us_3m1s_inst0.genblk5[23].u_rdata
top.u_connector.u_connector.u_axi_tmr_voter_us.axi_tmr_voter_us_3m1s_inst0.genblk5[24].u_rdata
top.u_connector.u_connector.u_axi_tmr_voter_us.axi_tmr_voter_us_3m1s_inst0.genblk5[25].u_rdata
top.u_connector.u_connector.u_axi_tmr_voter_us.axi_tmr_voter_us_3m1s_inst0.genblk5[26].u_rdata
top.u_connector.u_connector.u_axi_tmr_voter_us.axi_tmr_voter_us_3m1s_inst0.genblk5[27].u_rdata
top.u_connector.u_connector.u_axi_tmr_voter_us.axi_tmr_voter_us_3m1s_inst0.genblk5[28].u_rdata
top.u_connector.u_connector.u_axi_tmr_voter_us.axi_tmr_voter_us_3m1s_inst0.genblk5[29].u_rdata
top.u_connector.u_connector.u_axi_tmr_voter_us.axi_tmr_voter_us_3m1s_inst0.genblk5[30].u_rdata
top.u_connector.u_connector.u_axi_tmr_voter_us.axi_tmr_voter_us_3m1s_inst0.genblk5[31].u_rdata
top.u_connector.u_connector.u_axi_tmr_voter_us.axi_tmr_voter_us_3m1s_inst0.genblk5[32].u_rdata
top.u_connector.u_connector.u_axi_tmr_voter_us.axi_tmr_voter_us_3m1s_inst0.genblk5[33].u_rdata
top.u_connector.u_connector.u_axi_tmr_voter_us.axi_tmr_voter_us_3m1s_inst0.genblk5[34].u_rdata
top.u_connector.u_connector.u_axi_tmr_voter_us.axi_tmr_voter_us_3m1s_inst0.genblk5[35].u_rdata
top.u_connector.u_connector.u_axi_tmr_voter_us.axi_tmr_voter_us_3m1s_inst0.genblk5[36].u_rdata
top.u_connector.u_connector.u_axi_tmr_voter_us.axi_tmr_voter_us_3m1s_inst0.genblk5[37].u_rdata
top.u_connector.u_connector.u_axi_tmr_voter_us.axi_tmr_voter_us_3m1s_inst0.genblk5[38].u_rdata
top.u_connector.u_connector.u_axi_tmr_voter_us.axi_tmr_voter_us_3m1s_inst0.genblk5[39].u_rdata
top.u_connector.u_connector.u_axi_tmr_voter_us.axi_tmr_voter_us_3m1s_inst0.genblk5[40].u_rdata
top.u_connector.u_connector.u_axi_tmr_voter_us.axi_tmr_voter_us_3m1s_inst0.genblk5[41].u_rdata
top.u_connector.u_connector.u_axi_tmr_voter_us.axi_tmr_voter_us_3m1s_inst0.genblk5[42].u_rdata
top.u_connector.u_connector.u_axi_tmr_voter_us.axi_tmr_voter_us_3m1s_inst0.genblk5[43].u_rdata
top.u_connector.u_connector.u_axi_tmr_voter_us.axi_tmr_voter_us_3m1s_inst0.genblk5[44].u_rdata
top.u_connector.u_connector.u_axi_tmr_voter_us.axi_tmr_voter_us_3m1s_inst0.genblk5[45].u_rdata
top.u_connector.u_connector.u_axi_tmr_voter_us.axi_tmr_voter_us_3m1s_inst0.genblk5[46].u_rdata
top.u_connector.u_connector.u_axi_tmr_voter_us.axi_tmr_voter_us_3m1s_inst0.genblk5[47].u_rdata
top.u_connector.u_connector.u_axi_tmr_voter_us.axi_tmr_voter_us_3m1s_inst0.genblk5[48].u_rdata
top.u_connector.u_connector.u_axi_tmr_voter_us.axi_tmr_voter_us_3m1s_inst0.genblk5[49].u_rdata
top.u_connector.u_connector.u_axi_tmr_voter_us.axi_tmr_voter_us_3m1s_inst0.genblk5[50].u_rdata
top.u_connector.u_connector.u_axi_tmr_voter_us.axi_tmr_voter_us_3m1s_inst0.genblk5[51].u_rdata
top.u_connector.u_connector.u_axi_tmr_voter_us.axi_tmr_voter_us_3m1s_inst0.genblk5[52].u_rdata
top.u_connector.u_connector.u_axi_tmr_voter_us.axi_tmr_voter_us_3m1s_inst0.genblk5[53].u_rdata
top.u_connector.u_connector.u_axi_tmr_voter_us.axi_tmr_voter_us_3m1s_inst0.genblk5[54].u_rdata
top.u_connector.u_connector.u_axi_tmr_voter_us.axi_tmr_voter_us_3m1s_inst0.genblk5[55].u_rdata
top.u_connector.u_connector.u_axi_tmr_voter_us.axi_tmr_voter_us_3m1s_inst0.genblk5[56].u_rdata
top.u_connector.u_connector.u_axi_tmr_voter_us.axi_tmr_voter_us_3m1s_inst0.genblk5[57].u_rdata
top.u_connector.u_connector.u_axi_tmr_voter_us.axi_tmr_voter_us_3m1s_inst0.genblk5[58].u_rdata
top.u_connector.u_connector.u_axi_tmr_voter_us.axi_tmr_voter_us_3m1s_inst0.genblk5[59].u_rdata
top.u_connector.u_connector.u_axi_tmr_voter_us.axi_tmr_voter_us_3m1s_inst0.genblk5[60].u_rdata
top.u_connector.u_connector.u_axi_tmr_voter_us.axi_tmr_voter_us_3m1s_inst0.genblk5[61].u_rdata
top.u_connector.u_connector.u_axi_tmr_voter_us.axi_tmr_voter_us_3m1s_inst0.genblk5[62].u_rdata
top.u_connector.u_connector.u_axi_tmr_voter_us.axi_tmr_voter_us_3m1s_inst0.genblk5[63].u_rdata
top.u_connector.u_connector.u_axi_tmr_voter_us.axi_tmr_voter_us_3m1s_inst0.genblk6[0].u_rresp
top.u_connector.u_connector.u_axi_tmr_voter_us.axi_tmr_voter_us_3m1s_inst0.genblk6[1].u_rresp
top.u_connector.u_connector.u_axi_tmr_voter_us.axi_tmr_voter_us_3m1s_inst0.genblk7[0].u_ruser
top.u_connector.u_connector.u_axi_tmr_voter_us.axi_tmr_voter_us_3m1s_inst1
top.u_connector.u_connector.u_axi_tmr_voter_us.axi_tmr_voter_us_3m1s_inst1.u_awready
top.u_connector.u_connector.u_axi_tmr_voter_us.axi_tmr_voter_us_3m1s_inst1.u_wready
top.u_connector.u_connector.u_axi_tmr_voter_us.axi_tmr_voter_us_3m1s_inst1.u_bvalid
top.u_connector.u_connector.u_axi_tmr_voter_us.axi_tmr_voter_us_3m1s_inst1.u_arready
top.u_connector.u_connector.u_axi_tmr_voter_us.axi_tmr_voter_us_3m1s_inst1.u_rlast
top.u_connector.u_connector.u_axi_tmr_voter_us.axi_tmr_voter_us_3m1s_inst1.u_rvalid
top.u_connector.u_connector.u_axi_tmr_voter_us.axi_tmr_voter_us_3m1s_inst1.genblk1[0].u_bid
top.u_connector.u_connector.u_axi_tmr_voter_us.axi_tmr_voter_us_3m1s_inst1.genblk1[1].u_bid
top.u_connector.u_connector.u_axi_tmr_voter_us.axi_tmr_voter_us_3m1s_inst1.genblk1[2].u_bid
top.u_connector.u_connector.u_axi_tmr_voter_us.axi_tmr_voter_us_3m1s_inst1.genblk1[3].u_bid
top.u_connector.u_connector.u_axi_tmr_voter_us.axi_tmr_voter_us_3m1s_inst1.genblk1[4].u_bid
top.u_connector.u_connector.u_axi_tmr_voter_us.axi_tmr_voter_us_3m1s_inst1.genblk1[5].u_bid
top.u_connector.u_connector.u_axi_tmr_voter_us.axi_tmr_voter_us_3m1s_inst1.genblk1[6].u_bid
top.u_connector.u_connector.u_axi_tmr_voter_us.axi_tmr_voter_us_3m1s_inst1.genblk1[7].u_bid
top.u_connector.u_connector.u_axi_tmr_voter_us.axi_tmr_voter_us_3m1s_inst1.genblk2[0].u_bresp
top.u_connector.u_connector.u_axi_tmr_voter_us.axi_tmr_voter_us_3m1s_inst1.genblk2[1].u_bresp
top.u_connector.u_connector.u_axi_tmr_voter_us.axi_tmr_voter_us_3m1s_inst1.genblk3[0].u_buser
top.u_connector.u_connector.u_axi_tmr_voter_us.axi_tmr_voter_us_3m1s_inst1.genblk4[0].u_rid
top.u_connector.u_connector.u_axi_tmr_voter_us.axi_tmr_voter_us_3m1s_inst1.genblk4[1].u_rid
top.u_connector.u_connector.u_axi_tmr_voter_us.axi_tmr_voter_us_3m1s_inst1.genblk4[2].u_rid
top.u_connector.u_connector.u_axi_tmr_voter_us.axi_tmr_voter_us_3m1s_inst1.genblk4[3].u_rid
top.u_connector.u_connector.u_axi_tmr_voter_us.axi_tmr_voter_us_3m1s_inst1.genblk4[4].u_rid
top.u_connector.u_connector.u_axi_tmr_voter_us.axi_tmr_voter_us_3m1s_inst1.genblk4[5].u_rid
top.u_connector.u_connector.u_axi_tmr_voter_us.axi_tmr_voter_us_3m1s_inst1.genblk4[6].u_rid
top.u_connector.u_connector.u_axi_tmr_voter_us.axi_tmr_voter_us_3m1s_inst1.genblk4[7].u_rid
top.u_connector.u_connector.u_axi_tmr_voter_us.axi_tmr_voter_us_3m1s_inst1.genblk5[0].u_rdata
top.u_connector.u_connector.u_axi_tmr_voter_us.axi_tmr_voter_us_3m1s_inst1.genblk5[1].u_rdata
top.u_connector.u_connector.u_axi_tmr_voter_us.axi_tmr_voter_us_3m1s_inst1.genblk5[2].u_rdata
top.u_connector.u_connector.u_axi_tmr_voter_us.axi_tmr_voter_us_3m1s_inst1.genblk5[3].u_rdata
top.u_connector.u_connector.u_axi_tmr_voter_us.axi_tmr_voter_us_3m1s_inst1.genblk5[4].u_rdata
top.u_connector.u_connector.u_axi_tmr_voter_us.axi_tmr_voter_us_3m1s_inst1.genblk5[5].u_rdata
top.u_connector.u_connector.u_axi_tmr_voter_us.axi_tmr_voter_us_3m1s_inst1.genblk5[6].u_rdata
top.u_connector.u_connector.u_axi_tmr_voter_us.axi_tmr_voter_us_3m1s_inst1.genblk5[7].u_rdata
top.u_connector.u_connector.u_axi_tmr_voter_us.axi_tmr_voter_us_3m1s_inst1.genblk5[8].u_rdata
top.u_connector.u_connector.u_axi_tmr_voter_us.axi_tmr_voter_us_3m1s_inst1.genblk5[9].u_rdata
top.u_connector.u_connector.u_axi_tmr_voter_us.axi_tmr_voter_us_3m1s_inst1.genblk5[10].u_rdata
top.u_connector.u_connector.u_axi_tmr_voter_us.axi_tmr_voter_us_3m1s_inst1.genblk5[11].u_rdata
top.u_connector.u_connector.u_axi_tmr_voter_us.axi_tmr_voter_us_3m1s_inst1.genblk5[12].u_rdata
top.u_connector.u_connector.u_axi_tmr_voter_us.axi_tmr_voter_us_3m1s_inst1.genblk5[13].u_rdata
top.u_connector.u_connector.u_axi_tmr_voter_us.axi_tmr_voter_us_3m1s_inst1.genblk5[14].u_rdata
top.u_connector.u_connector.u_axi_tmr_voter_us.axi_tmr_voter_us_3m1s_inst1.genblk5[15].u_rdata
top.u_connector.u_connector.u_axi_tmr_voter_us.axi_tmr_voter_us_3m1s_inst1.genblk5[16].u_rdata
top.u_connector.u_connector.u_axi_tmr_voter_us.axi_tmr_voter_us_3m1s_inst1.genblk5[17].u_rdata
top.u_connector.u_connector.u_axi_tmr_voter_us.axi_tmr_voter_us_3m1s_inst1.genblk5[18].u_rdata
top.u_connector.u_connector.u_axi_tmr_voter_us.axi_tmr_voter_us_3m1s_inst1.genblk5[19].u_rdata
top.u_connector.u_connector.u_axi_tmr_voter_us.axi_tmr_voter_us_3m1s_inst1.genblk5[20].u_rdata
top.u_connector.u_connector.u_axi_tmr_voter_us.axi_tmr_voter_us_3m1s_inst1.genblk5[21].u_rdata
top.u_connector.u_connector.u_axi_tmr_voter_us.axi_tmr_voter_us_3m1s_inst1.genblk5[22].u_rdata
top.u_connector.u_connector.u_axi_tmr_voter_us.axi_tmr_voter_us_3m1s_inst1.genblk5[23].u_rdata
top.u_connector.u_connector.u_axi_tmr_voter_us.axi_tmr_voter_us_3m1s_inst1.genblk5[24].u_rdata
top.u_connector.u_connector.u_axi_tmr_voter_us.axi_tmr_voter_us_3m1s_inst1.genblk5[25].u_rdata
top.u_connector.u_connector.u_axi_tmr_voter_us.axi_tmr_voter_us_3m1s_inst1.genblk5[26].u_rdata
top.u_connector.u_connector.u_axi_tmr_voter_us.axi_tmr_voter_us_3m1s_inst1.genblk5[27].u_rdata
top.u_connector.u_connector.u_axi_tmr_voter_us.axi_tmr_voter_us_3m1s_inst1.genblk5[28].u_rdata
top.u_connector.u_connector.u_axi_tmr_voter_us.axi_tmr_voter_us_3m1s_inst1.genblk5[29].u_rdata
top.u_connector.u_connector.u_axi_tmr_voter_us.axi_tmr_voter_us_3m1s_inst1.genblk5[30].u_rdata
top.u_connector.u_connector.u_axi_tmr_voter_us.axi_tmr_voter_us_3m1s_inst1.genblk5[31].u_rdata
top.u_connector.u_connector.u_axi_tmr_voter_us.axi_tmr_voter_us_3m1s_inst1.genblk5[32].u_rdata
top.u_connector.u_connector.u_axi_tmr_voter_us.axi_tmr_voter_us_3m1s_inst1.genblk5[33].u_rdata
top.u_connector.u_connector.u_axi_tmr_voter_us.axi_tmr_voter_us_3m1s_inst1.genblk5[34].u_rdata
top.u_connector.u_connector.u_axi_tmr_voter_us.axi_tmr_voter_us_3m1s_inst1.genblk5[35].u_rdata
top.u_connector.u_connector.u_axi_tmr_voter_us.axi_tmr_voter_us_3m1s_inst1.genblk5[36].u_rdata
top.u_connector.u_connector.u_axi_tmr_voter_us.axi_tmr_voter_us_3m1s_inst1.genblk5[37].u_rdata
top.u_connector.u_connector.u_axi_tmr_voter_us.axi_tmr_voter_us_3m1s_inst1.genblk5[38].u_rdata
top.u_connector.u_connector.u_axi_tmr_voter_us.axi_tmr_voter_us_3m1s_inst1.genblk5[39].u_rdata
top.u_connector.u_connector.u_axi_tmr_voter_us.axi_tmr_voter_us_3m1s_inst1.genblk5[40].u_rdata
top.u_connector.u_connector.u_axi_tmr_voter_us.axi_tmr_voter_us_3m1s_inst1.genblk5[41].u_rdata
top.u_connector.u_connector.u_axi_tmr_voter_us.axi_tmr_voter_us_3m1s_inst1.genblk5[42].u_rdata
top.u_connector.u_connector.u_axi_tmr_voter_us.axi_tmr_voter_us_3m1s_inst1.genblk5[43].u_rdata
top.u_connector.u_connector.u_axi_tmr_voter_us.axi_tmr_voter_us_3m1s_inst1.genblk5[44].u_rdata
top.u_connector.u_connector.u_axi_tmr_voter_us.axi_tmr_voter_us_3m1s_inst1.genblk5[45].u_rdata
top.u_connector.u_connector.u_axi_tmr_voter_us.axi_tmr_voter_us_3m1s_inst1.genblk5[46].u_rdata
top.u_connector.u_connector.u_axi_tmr_voter_us.axi_tmr_voter_us_3m1s_inst1.genblk5[47].u_rdata
top.u_connector.u_connector.u_axi_tmr_voter_us.axi_tmr_voter_us_3m1s_inst1.genblk5[48].u_rdata
top.u_connector.u_connector.u_axi_tmr_voter_us.axi_tmr_voter_us_3m1s_inst1.genblk5[49].u_rdata
top.u_connector.u_connector.u_axi_tmr_voter_us.axi_tmr_voter_us_3m1s_inst1.genblk5[50].u_rdata
top.u_connector.u_connector.u_axi_tmr_voter_us.axi_tmr_voter_us_3m1s_inst1.genblk5[51].u_rdata
top.u_connector.u_connector.u_axi_tmr_voter_us.axi_tmr_voter_us_3m1s_inst1.genblk5[52].u_rdata
top.u_connector.u_connector.u_axi_tmr_voter_us.axi_tmr_voter_us_3m1s_inst1.genblk5[53].u_rdata
top.u_connector.u_connector.u_axi_tmr_voter_us.axi_tmr_voter_us_3m1s_inst1.genblk5[54].u_rdata
top.u_connector.u_connector.u_axi_tmr_voter_us.axi_tmr_voter_us_3m1s_inst1.genblk5[55].u_rdata
top.u_connector.u_connector.u_axi_tmr_voter_us.axi_tmr_voter_us_3m1s_inst1.genblk5[56].u_rdata
top.u_connector.u_connector.u_axi_tmr_voter_us.axi_tmr_voter_us_3m1s_inst1.genblk5[57].u_rdata
top.u_connector.u_connector.u_axi_tmr_voter_us.axi_tmr_voter_us_3m1s_inst1.genblk5[58].u_rdata
top.u_connector.u_connector.u_axi_tmr_voter_us.axi_tmr_voter_us_3m1s_inst1.genblk5[59].u_rdata
top.u_connector.u_connector.u_axi_tmr_voter_us.axi_tmr_voter_us_3m1s_inst1.genblk5[60].u_rdata
top.u_connector.u_connector.u_axi_tmr_voter_us.axi_tmr_voter_us_3m1s_inst1.genblk5[61].u_rdata
top.u_connector.u_connector.u_axi_tmr_voter_us.axi_tmr_voter_us_3m1s_inst1.genblk5[62].u_rdata
top.u_connector.u_connector.u_axi_tmr_voter_us.axi_tmr_voter_us_3m1s_inst1.genblk5[63].u_rdata
top.u_connector.u_connector.u_axi_tmr_voter_us.axi_tmr_voter_us_3m1s_inst1.genblk6[0].u_rresp
top.u_connector.u_connector.u_axi_tmr_voter_us.axi_tmr_voter_us_3m1s_inst1.genblk6[1].u_rresp
top.u_connector.u_connector.u_axi_tmr_voter_us.axi_tmr_voter_us_3m1s_inst1.genblk7[0].u_ruser
top.u_connector.u_connector.u_axi_tmr_voter_us.axi_tmr_voter_us_3m1s_inst2
top.u_connector.u_connector.u_axi_tmr_voter_us.axi_tmr_voter_us_3m1s_inst2.u_awready
top.u_connector.u_connector.u_axi_tmr_voter_us.axi_tmr_voter_us_3m1s_inst2.u_wready
top.u_connector.u_connector.u_axi_tmr_voter_us.axi_tmr_voter_us_3m1s_inst2.u_bvalid
top.u_connector.u_connector.u_axi_tmr_voter_us.axi_tmr_voter_us_3m1s_inst2.u_arready
top.u_connector.u_connector.u_axi_tmr_voter_us.axi_tmr_voter_us_3m1s_inst2.u_rlast
top.u_connector.u_connector.u_axi_tmr_voter_us.axi_tmr_voter_us_3m1s_inst2.u_rvalid
top.u_connector.u_connector.u_axi_tmr_voter_us.axi_tmr_voter_us_3m1s_inst2.genblk1[0].u_bid
top.u_connector.u_connector.u_axi_tmr_voter_us.axi_tmr_voter_us_3m1s_inst2.genblk1[1].u_bid
top.u_connector.u_connector.u_axi_tmr_voter_us.axi_tmr_voter_us_3m1s_inst2.genblk1[2].u_bid
top.u_connector.u_connector.u_axi_tmr_voter_us.axi_tmr_voter_us_3m1s_inst2.genblk1[3].u_bid
top.u_connector.u_connector.u_axi_tmr_voter_us.axi_tmr_voter_us_3m1s_inst2.genblk1[4].u_bid
top.u_connector.u_connector.u_axi_tmr_voter_us.axi_tmr_voter_us_3m1s_inst2.genblk1[5].u_bid
top.u_connector.u_connector.u_axi_tmr_voter_us.axi_tmr_voter_us_3m1s_inst2.genblk1[6].u_bid
top.u_connector.u_connector.u_axi_tmr_voter_us.axi_tmr_voter_us_3m1s_inst2.genblk1[7].u_bid
top.u_connector.u_connector.u_axi_tmr_voter_us.axi_tmr_voter_us_3m1s_inst2.genblk2[0].u_bresp
top.u_connector.u_connector.u_axi_tmr_voter_us.axi_tmr_voter_us_3m1s_inst2.genblk2[1].u_bresp
top.u_connector.u_connector.u_axi_tmr_voter_us.axi_tmr_voter_us_3m1s_inst2.genblk3[0].u_buser
top.u_connector.u_connector.u_axi_tmr_voter_us.axi_tmr_voter_us_3m1s_inst2.genblk4[0].u_rid
top.u_connector.u_connector.u_axi_tmr_voter_us.axi_tmr_voter_us_3m1s_inst2.genblk4[1].u_rid
top.u_connector.u_connector.u_axi_tmr_voter_us.axi_tmr_voter_us_3m1s_inst2.genblk4[2].u_rid
top.u_connector.u_connector.u_axi_tmr_voter_us.axi_tmr_voter_us_3m1s_inst2.genblk4[3].u_rid
top.u_connector.u_connector.u_axi_tmr_voter_us.axi_tmr_voter_us_3m1s_inst2.genblk4[4].u_rid
top.u_connector.u_connector.u_axi_tmr_voter_us.axi_tmr_voter_us_3m1s_inst2.genblk4[5].u_rid
top.u_connector.u_connector.u_axi_tmr_voter_us.axi_tmr_voter_us_3m1s_inst2.genblk4[6].u_rid
top.u_connector.u_connector.u_axi_tmr_voter_us.axi_tmr_voter_us_3m1s_inst2.genblk4[7].u_rid
top.u_connector.u_connector.u_axi_tmr_voter_us.axi_tmr_voter_us_3m1s_inst2.genblk5[0].u_rdata
top.u_connector.u_connector.u_axi_tmr_voter_us.axi_tmr_voter_us_3m1s_inst2.genblk5[1].u_rdata
top.u_connector.u_connector.u_axi_tmr_voter_us.axi_tmr_voter_us_3m1s_inst2.genblk5[2].u_rdata
top.u_connector.u_connector.u_axi_tmr_voter_us.axi_tmr_voter_us_3m1s_inst2.genblk5[3].u_rdata
top.u_connector.u_connector.u_axi_tmr_voter_us.axi_tmr_voter_us_3m1s_inst2.genblk5[4].u_rdata
top.u_connector.u_connector.u_axi_tmr_voter_us.axi_tmr_voter_us_3m1s_inst2.genblk5[5].u_rdata
top.u_connector.u_connector.u_axi_tmr_voter_us.axi_tmr_voter_us_3m1s_inst2.genblk5[6].u_rdata
top.u_connector.u_connector.u_axi_tmr_voter_us.axi_tmr_voter_us_3m1s_inst2.genblk5[7].u_rdata
top.u_connector.u_connector.u_axi_tmr_voter_us.axi_tmr_voter_us_3m1s_inst2.genblk5[8].u_rdata
top.u_connector.u_connector.u_axi_tmr_voter_us.axi_tmr_voter_us_3m1s_inst2.genblk5[9].u_rdata
top.u_connector.u_connector.u_axi_tmr_voter_us.axi_tmr_voter_us_3m1s_inst2.genblk5[10].u_rdata
top.u_connector.u_connector.u_axi_tmr_voter_us.axi_tmr_voter_us_3m1s_inst2.genblk5[11].u_rdata
top.u_connector.u_connector.u_axi_tmr_voter_us.axi_tmr_voter_us_3m1s_inst2.genblk5[12].u_rdata
top.u_connector.u_connector.u_axi_tmr_voter_us.axi_tmr_voter_us_3m1s_inst2.genblk5[13].u_rdata
top.u_connector.u_connector.u_axi_tmr_voter_us.axi_tmr_voter_us_3m1s_inst2.genblk5[14].u_rdata
top.u_connector.u_connector.u_axi_tmr_voter_us.axi_tmr_voter_us_3m1s_inst2.genblk5[15].u_rdata
top.u_connector.u_connector.u_axi_tmr_voter_us.axi_tmr_voter_us_3m1s_inst2.genblk5[16].u_rdata
top.u_connector.u_connector.u_axi_tmr_voter_us.axi_tmr_voter_us_3m1s_inst2.genblk5[17].u_rdata
top.u_connector.u_connector.u_axi_tmr_voter_us.axi_tmr_voter_us_3m1s_inst2.genblk5[18].u_rdata
top.u_connector.u_connector.u_axi_tmr_voter_us.axi_tmr_voter_us_3m1s_inst2.genblk5[19].u_rdata
top.u_connector.u_connector.u_axi_tmr_voter_us.axi_tmr_voter_us_3m1s_inst2.genblk5[20].u_rdata
top.u_connector.u_connector.u_axi_tmr_voter_us.axi_tmr_voter_us_3m1s_inst2.genblk5[21].u_rdata
top.u_connector.u_connector.u_axi_tmr_voter_us.axi_tmr_voter_us_3m1s_inst2.genblk5[22].u_rdata
top.u_connector.u_connector.u_axi_tmr_voter_us.axi_tmr_voter_us_3m1s_inst2.genblk5[23].u_rdata
top.u_connector.u_connector.u_axi_tmr_voter_us.axi_tmr_voter_us_3m1s_inst2.genblk5[24].u_rdata
top.u_connector.u_connector.u_axi_tmr_voter_us.axi_tmr_voter_us_3m1s_inst2.genblk5[25].u_rdata
top.u_connector.u_connector.u_axi_tmr_voter_us.axi_tmr_voter_us_3m1s_inst2.genblk5[26].u_rdata
top.u_connector.u_connector.u_axi_tmr_voter_us.axi_tmr_voter_us_3m1s_inst2.genblk5[27].u_rdata
top.u_connector.u_connector.u_axi_tmr_voter_us.axi_tmr_voter_us_3m1s_inst2.genblk5[28].u_rdata
top.u_connector.u_connector.u_axi_tmr_voter_us.axi_tmr_voter_us_3m1s_inst2.genblk5[29].u_rdata
top.u_connector.u_connector.u_axi_tmr_voter_us.axi_tmr_voter_us_3m1s_inst2.genblk5[30].u_rdata
top.u_connector.u_connector.u_axi_tmr_voter_us.axi_tmr_voter_us_3m1s_inst2.genblk5[31].u_rdata
top.u_connector.u_connector.u_axi_tmr_voter_us.axi_tmr_voter_us_3m1s_inst2.genblk5[32].u_rdata
top.u_connector.u_connector.u_axi_tmr_voter_us.axi_tmr_voter_us_3m1s_inst2.genblk5[33].u_rdata
top.u_connector.u_connector.u_axi_tmr_voter_us.axi_tmr_voter_us_3m1s_inst2.genblk5[34].u_rdata
top.u_connector.u_connector.u_axi_tmr_voter_us.axi_tmr_voter_us_3m1s_inst2.genblk5[35].u_rdata
top.u_connector.u_connector.u_axi_tmr_voter_us.axi_tmr_voter_us_3m1s_inst2.genblk5[36].u_rdata
top.u_connector.u_connector.u_axi_tmr_voter_us.axi_tmr_voter_us_3m1s_inst2.genblk5[37].u_rdata
top.u_connector.u_connector.u_axi_tmr_voter_us.axi_tmr_voter_us_3m1s_inst2.genblk5[38].u_rdata
top.u_connector.u_connector.u_axi_tmr_voter_us.axi_tmr_voter_us_3m1s_inst2.genblk5[39].u_rdata
top.u_connector.u_connector.u_axi_tmr_voter_us.axi_tmr_voter_us_3m1s_inst2.genblk5[40].u_rdata
top.u_connector.u_connector.u_axi_tmr_voter_us.axi_tmr_voter_us_3m1s_inst2.genblk5[41].u_rdata
top.u_connector.u_connector.u_axi_tmr_voter_us.axi_tmr_voter_us_3m1s_inst2.genblk5[42].u_rdata
top.u_connector.u_connector.u_axi_tmr_voter_us.axi_tmr_voter_us_3m1s_inst2.genblk5[43].u_rdata
top.u_connector.u_connector.u_axi_tmr_voter_us.axi_tmr_voter_us_3m1s_inst2.genblk5[44].u_rdata
top.u_connector.u_connector.u_axi_tmr_voter_us.axi_tmr_voter_us_3m1s_inst2.genblk5[45].u_rdata
top.u_connector.u_connector.u_axi_tmr_voter_us.axi_tmr_voter_us_3m1s_inst2.genblk5[46].u_rdata
top.u_connector.u_connector.u_axi_tmr_voter_us.axi_tmr_voter_us_3m1s_inst2.genblk5[47].u_rdata
top.u_connector.u_connector.u_axi_tmr_voter_us.axi_tmr_voter_us_3m1s_inst2.genblk5[48].u_rdata
top.u_connector.u_connector.u_axi_tmr_voter_us.axi_tmr_voter_us_3m1s_inst2.genblk5[49].u_rdata
top.u_connector.u_connector.u_axi_tmr_voter_us.axi_tmr_voter_us_3m1s_inst2.genblk5[50].u_rdata
top.u_connector.u_connector.u_axi_tmr_voter_us.axi_tmr_voter_us_3m1s_inst2.genblk5[51].u_rdata
top.u_connector.u_connector.u_axi_tmr_voter_us.axi_tmr_voter_us_3m1s_inst2.genblk5[52].u_rdata
top.u_connector.u_connector.u_axi_tmr_voter_us.axi_tmr_voter_us_3m1s_inst2.genblk5[53].u_rdata
top.u_connector.u_connector.u_axi_tmr_voter_us.axi_tmr_voter_us_3m1s_inst2.genblk5[54].u_rdata
top.u_connector.u_connector.u_axi_tmr_voter_us.axi_tmr_voter_us_3m1s_inst2.genblk5[55].u_rdata
top.u_connector.u_connector.u_axi_tmr_voter_us.axi_tmr_voter_us_3m1s_inst2.genblk5[56].u_rdata
top.u_connector.u_connector.u_axi_tmr_voter_us.axi_tmr_voter_us_3m1s_inst2.genblk5[57].u_rdata
top.u_connector.u_connector.u_axi_tmr_voter_us.axi_tmr_voter_us_3m1s_inst2.genblk5[58].u_rdata
top.u_connector.u_connector.u_axi_tmr_voter_us.axi_tmr_voter_us_3m1s_inst2.genblk5[59].u_rdata
top.u_connector.u_connector.u_axi_tmr_voter_us.axi_tmr_voter_us_3m1s_inst2.genblk5[60].u_rdata
top.u_connector.u_connector.u_axi_tmr_voter_us.axi_tmr_voter_us_3m1s_inst2.genblk5[61].u_rdata
top.u_connector.u_connector.u_axi_tmr_voter_us.axi_tmr_voter_us_3m1s_inst2.genblk5[62].u_rdata
top.u_connector.u_connector.u_axi_tmr_voter_us.axi_tmr_voter_us_3m1s_inst2.genblk5[63].u_rdata
top.u_connector.u_connector.u_axi_tmr_voter_us.axi_tmr_voter_us_3m1s_inst2.genblk6[0].u_rresp
top.u_connector.u_connector.u_axi_tmr_voter_us.axi_tmr_voter_us_3m1s_inst2.genblk6[1].u_rresp
top.u_connector.u_connector.u_axi_tmr_voter_us.axi_tmr_voter_us_3m1s_inst2.genblk7[0].u_ruser
top.u_connector.u_connector.axi_crossbar_inst0
top.u_connector.u_connector.axi_crossbar_inst0.axi_crossbar_wr_inst
top.u_connector.u_connector.axi_crossbar_inst0.axi_crossbar_wr_inst.s_ifaces[0].addr_inst
top.u_connector.u_connector.axi_crossbar_inst0.axi_crossbar_wr_inst.s_ifaces[0].b_arb_inst
top.u_connector.u_connector.axi_crossbar_inst0.axi_crossbar_wr_inst.s_ifaces[0].b_arb_inst.priority_encoder_inst
top.u_connector.u_connector.axi_crossbar_inst0.axi_crossbar_wr_inst.s_ifaces[0].b_arb_inst.priority_encoder_masked
top.u_connector.u_connector.axi_crossbar_inst0.axi_crossbar_wr_inst.s_ifaces[0].reg_inst
top.u_connector.u_connector.axi_crossbar_inst0.axi_crossbar_wr_inst.s_ifaces[1].addr_inst
top.u_connector.u_connector.axi_crossbar_inst0.axi_crossbar_wr_inst.s_ifaces[1].b_arb_inst
top.u_connector.u_connector.axi_crossbar_inst0.axi_crossbar_wr_inst.s_ifaces[1].b_arb_inst.priority_encoder_inst
top.u_connector.u_connector.axi_crossbar_inst0.axi_crossbar_wr_inst.s_ifaces[1].b_arb_inst.priority_encoder_masked
top.u_connector.u_connector.axi_crossbar_inst0.axi_crossbar_wr_inst.s_ifaces[1].reg_inst
top.u_connector.u_connector.axi_crossbar_inst0.axi_crossbar_wr_inst.s_ifaces[2].addr_inst
top.u_connector.u_connector.axi_crossbar_inst0.axi_crossbar_wr_inst.s_ifaces[2].b_arb_inst
top.u_connector.u_connector.axi_crossbar_inst0.axi_crossbar_wr_inst.s_ifaces[2].b_arb_inst.priority_encoder_inst
top.u_connector.u_connector.axi_crossbar_inst0.axi_crossbar_wr_inst.s_ifaces[2].b_arb_inst.priority_encoder_masked
top.u_connector.u_connector.axi_crossbar_inst0.axi_crossbar_wr_inst.s_ifaces[2].reg_inst
top.u_connector.u_connector.axi_crossbar_inst0.axi_crossbar_wr_inst.m_ifaces[0].a_arb_inst
top.u_connector.u_connector.axi_crossbar_inst0.axi_crossbar_wr_inst.m_ifaces[0].a_arb_inst.priority_encoder_inst
top.u_connector.u_connector.axi_crossbar_inst0.axi_crossbar_wr_inst.m_ifaces[0].a_arb_inst.priority_encoder_masked
top.u_connector.u_connector.axi_crossbar_inst0.axi_crossbar_wr_inst.m_ifaces[0].reg_inst
top.u_connector.u_connector.axi_crossbar_inst0.axi_crossbar_wr_inst.m_ifaces[1].a_arb_inst
top.u_connector.u_connector.axi_crossbar_inst0.axi_crossbar_wr_inst.m_ifaces[1].a_arb_inst.priority_encoder_inst
top.u_connector.u_connector.axi_crossbar_inst0.axi_crossbar_wr_inst.m_ifaces[1].a_arb_inst.priority_encoder_masked
top.u_connector.u_connector.axi_crossbar_inst0.axi_crossbar_wr_inst.m_ifaces[1].reg_inst
top.u_connector.u_connector.axi_crossbar_inst0.axi_crossbar_wr_inst.m_ifaces[2].a_arb_inst
top.u_connector.u_connector.axi_crossbar_inst0.axi_crossbar_wr_inst.m_ifaces[2].a_arb_inst.priority_encoder_inst
top.u_connector.u_connector.axi_crossbar_inst0.axi_crossbar_wr_inst.m_ifaces[2].a_arb_inst.priority_encoder_masked
top.u_connector.u_connector.axi_crossbar_inst0.axi_crossbar_wr_inst.m_ifaces[2].reg_inst
top.u_connector.u_connector.axi_crossbar_inst0.axi_crossbar_wr_inst.m_ifaces[3].a_arb_inst
top.u_connector.u_connector.axi_crossbar_inst0.axi_crossbar_wr_inst.m_ifaces[3].a_arb_inst.priority_encoder_inst
top.u_connector.u_connector.axi_crossbar_inst0.axi_crossbar_wr_inst.m_ifaces[3].a_arb_inst.priority_encoder_masked
top.u_connector.u_connector.axi_crossbar_inst0.axi_crossbar_wr_inst.m_ifaces[3].reg_inst
top.u_connector.u_connector.axi_crossbar_inst0.axi_crossbar_rd_inst
top.u_connector.u_connector.axi_crossbar_inst0.axi_crossbar_rd_inst.s_ifaces[0].addr_inst
top.u_connector.u_connector.axi_crossbar_inst0.axi_crossbar_rd_inst.s_ifaces[0].r_arb_inst
top.u_connector.u_connector.axi_crossbar_inst0.axi_crossbar_rd_inst.s_ifaces[0].r_arb_inst.priority_encoder_inst
top.u_connector.u_connector.axi_crossbar_inst0.axi_crossbar_rd_inst.s_ifaces[0].r_arb_inst.priority_encoder_masked
top.u_connector.u_connector.axi_crossbar_inst0.axi_crossbar_rd_inst.s_ifaces[0].reg_inst
top.u_connector.u_connector.axi_crossbar_inst0.axi_crossbar_rd_inst.s_ifaces[1].addr_inst
top.u_connector.u_connector.axi_crossbar_inst0.axi_crossbar_rd_inst.s_ifaces[1].r_arb_inst
top.u_connector.u_connector.axi_crossbar_inst0.axi_crossbar_rd_inst.s_ifaces[1].r_arb_inst.priority_encoder_inst
top.u_connector.u_connector.axi_crossbar_inst0.axi_crossbar_rd_inst.s_ifaces[1].r_arb_inst.priority_encoder_masked
top.u_connector.u_connector.axi_crossbar_inst0.axi_crossbar_rd_inst.s_ifaces[1].reg_inst
top.u_connector.u_connector.axi_crossbar_inst0.axi_crossbar_rd_inst.s_ifaces[2].addr_inst
top.u_connector.u_connector.axi_crossbar_inst0.axi_crossbar_rd_inst.s_ifaces[2].r_arb_inst
top.u_connector.u_connector.axi_crossbar_inst0.axi_crossbar_rd_inst.s_ifaces[2].r_arb_inst.priority_encoder_inst
top.u_connector.u_connector.axi_crossbar_inst0.axi_crossbar_rd_inst.s_ifaces[2].r_arb_inst.priority_encoder_masked
top.u_connector.u_connector.axi_crossbar_inst0.axi_crossbar_rd_inst.s_ifaces[2].reg_inst
top.u_connector.u_connector.axi_crossbar_inst0.axi_crossbar_rd_inst.m_ifaces[0].a_arb_inst
top.u_connector.u_connector.axi_crossbar_inst0.axi_crossbar_rd_inst.m_ifaces[0].a_arb_inst.priority_encoder_inst
top.u_connector.u_connector.axi_crossbar_inst0.axi_crossbar_rd_inst.m_ifaces[0].a_arb_inst.priority_encoder_masked
top.u_connector.u_connector.axi_crossbar_inst0.axi_crossbar_rd_inst.m_ifaces[0].reg_inst
top.u_connector.u_connector.axi_crossbar_inst0.axi_crossbar_rd_inst.m_ifaces[1].a_arb_inst
top.u_connector.u_connector.axi_crossbar_inst0.axi_crossbar_rd_inst.m_ifaces[1].a_arb_inst.priority_encoder_inst
top.u_connector.u_connector.axi_crossbar_inst0.axi_crossbar_rd_inst.m_ifaces[1].a_arb_inst.priority_encoder_masked
top.u_connector.u_connector.axi_crossbar_inst0.axi_crossbar_rd_inst.m_ifaces[1].reg_inst
top.u_connector.u_connector.axi_crossbar_inst0.axi_crossbar_rd_inst.m_ifaces[2].a_arb_inst
top.u_connector.u_connector.axi_crossbar_inst0.axi_crossbar_rd_inst.m_ifaces[2].a_arb_inst.priority_encoder_inst
top.u_connector.u_connector.axi_crossbar_inst0.axi_crossbar_rd_inst.m_ifaces[2].a_arb_inst.priority_encoder_masked
top.u_connector.u_connector.axi_crossbar_inst0.axi_crossbar_rd_inst.m_ifaces[2].reg_inst
top.u_connector.u_connector.axi_crossbar_inst0.axi_crossbar_rd_inst.m_ifaces[3].a_arb_inst
top.u_connector.u_connector.axi_crossbar_inst0.axi_crossbar_rd_inst.m_ifaces[3].a_arb_inst.priority_encoder_inst
top.u_connector.u_connector.axi_crossbar_inst0.axi_crossbar_rd_inst.m_ifaces[3].a_arb_inst.priority_encoder_masked
top.u_connector.u_connector.axi_crossbar_inst0.axi_crossbar_rd_inst.m_ifaces[3].reg_inst
top.u_connector.u_connector.axi_crossbar_inst1
top.u_connector.u_connector.axi_crossbar_inst1.axi_crossbar_wr_inst
top.u_connector.u_connector.axi_crossbar_inst1.axi_crossbar_wr_inst.s_ifaces[0].addr_inst
top.u_connector.u_connector.axi_crossbar_inst1.axi_crossbar_wr_inst.s_ifaces[0].b_arb_inst
top.u_connector.u_connector.axi_crossbar_inst1.axi_crossbar_wr_inst.s_ifaces[0].b_arb_inst.priority_encoder_inst
top.u_connector.u_connector.axi_crossbar_inst1.axi_crossbar_wr_inst.s_ifaces[0].b_arb_inst.priority_encoder_masked
top.u_connector.u_connector.axi_crossbar_inst1.axi_crossbar_wr_inst.s_ifaces[0].reg_inst
top.u_connector.u_connector.axi_crossbar_inst1.axi_crossbar_wr_inst.s_ifaces[1].addr_inst
top.u_connector.u_connector.axi_crossbar_inst1.axi_crossbar_wr_inst.s_ifaces[1].b_arb_inst
top.u_connector.u_connector.axi_crossbar_inst1.axi_crossbar_wr_inst.s_ifaces[1].b_arb_inst.priority_encoder_inst
top.u_connector.u_connector.axi_crossbar_inst1.axi_crossbar_wr_inst.s_ifaces[1].b_arb_inst.priority_encoder_masked
top.u_connector.u_connector.axi_crossbar_inst1.axi_crossbar_wr_inst.s_ifaces[1].reg_inst
top.u_connector.u_connector.axi_crossbar_inst1.axi_crossbar_wr_inst.s_ifaces[2].addr_inst
top.u_connector.u_connector.axi_crossbar_inst1.axi_crossbar_wr_inst.s_ifaces[2].b_arb_inst
top.u_connector.u_connector.axi_crossbar_inst1.axi_crossbar_wr_inst.s_ifaces[2].b_arb_inst.priority_encoder_inst
top.u_connector.u_connector.axi_crossbar_inst1.axi_crossbar_wr_inst.s_ifaces[2].b_arb_inst.priority_encoder_masked
top.u_connector.u_connector.axi_crossbar_inst1.axi_crossbar_wr_inst.s_ifaces[2].reg_inst
top.u_connector.u_connector.axi_crossbar_inst1.axi_crossbar_wr_inst.m_ifaces[0].a_arb_inst
top.u_connector.u_connector.axi_crossbar_inst1.axi_crossbar_wr_inst.m_ifaces[0].a_arb_inst.priority_encoder_inst
top.u_connector.u_connector.axi_crossbar_inst1.axi_crossbar_wr_inst.m_ifaces[0].a_arb_inst.priority_encoder_masked
top.u_connector.u_connector.axi_crossbar_inst1.axi_crossbar_wr_inst.m_ifaces[0].reg_inst
top.u_connector.u_connector.axi_crossbar_inst1.axi_crossbar_wr_inst.m_ifaces[1].a_arb_inst
top.u_connector.u_connector.axi_crossbar_inst1.axi_crossbar_wr_inst.m_ifaces[1].a_arb_inst.priority_encoder_inst
top.u_connector.u_connector.axi_crossbar_inst1.axi_crossbar_wr_inst.m_ifaces[1].a_arb_inst.priority_encoder_masked
top.u_connector.u_connector.axi_crossbar_inst1.axi_crossbar_wr_inst.m_ifaces[1].reg_inst
top.u_connector.u_connector.axi_crossbar_inst1.axi_crossbar_wr_inst.m_ifaces[2].a_arb_inst
top.u_connector.u_connector.axi_crossbar_inst1.axi_crossbar_wr_inst.m_ifaces[2].a_arb_inst.priority_encoder_inst
top.u_connector.u_connector.axi_crossbar_inst1.axi_crossbar_wr_inst.m_ifaces[2].a_arb_inst.priority_encoder_masked
top.u_connector.u_connector.axi_crossbar_inst1.axi_crossbar_wr_inst.m_ifaces[2].reg_inst
top.u_connector.u_connector.axi_crossbar_inst1.axi_crossbar_wr_inst.m_ifaces[3].a_arb_inst
top.u_connector.u_connector.axi_crossbar_inst1.axi_crossbar_wr_inst.m_ifaces[3].a_arb_inst.priority_encoder_inst
top.u_connector.u_connector.axi_crossbar_inst1.axi_crossbar_wr_inst.m_ifaces[3].a_arb_inst.priority_encoder_masked
top.u_connector.u_connector.axi_crossbar_inst1.axi_crossbar_wr_inst.m_ifaces[3].reg_inst
top.u_connector.u_connector.axi_crossbar_inst1.axi_crossbar_rd_inst
top.u_connector.u_connector.axi_crossbar_inst1.axi_crossbar_rd_inst.s_ifaces[0].addr_inst
top.u_connector.u_connector.axi_crossbar_inst1.axi_crossbar_rd_inst.s_ifaces[0].r_arb_inst
top.u_connector.u_connector.axi_crossbar_inst1.axi_crossbar_rd_inst.s_ifaces[0].r_arb_inst.priority_encoder_inst
top.u_connector.u_connector.axi_crossbar_inst1.axi_crossbar_rd_inst.s_ifaces[0].r_arb_inst.priority_encoder_masked
top.u_connector.u_connector.axi_crossbar_inst1.axi_crossbar_rd_inst.s_ifaces[0].reg_inst
top.u_connector.u_connector.axi_crossbar_inst1.axi_crossbar_rd_inst.s_ifaces[1].addr_inst
top.u_connector.u_connector.axi_crossbar_inst1.axi_crossbar_rd_inst.s_ifaces[1].r_arb_inst
top.u_connector.u_connector.axi_crossbar_inst1.axi_crossbar_rd_inst.s_ifaces[1].r_arb_inst.priority_encoder_inst
top.u_connector.u_connector.axi_crossbar_inst1.axi_crossbar_rd_inst.s_ifaces[1].r_arb_inst.priority_encoder_masked
top.u_connector.u_connector.axi_crossbar_inst1.axi_crossbar_rd_inst.s_ifaces[1].reg_inst
top.u_connector.u_connector.axi_crossbar_inst1.axi_crossbar_rd_inst.s_ifaces[2].addr_inst
top.u_connector.u_connector.axi_crossbar_inst1.axi_crossbar_rd_inst.s_ifaces[2].r_arb_inst
top.u_connector.u_connector.axi_crossbar_inst1.axi_crossbar_rd_inst.s_ifaces[2].r_arb_inst.priority_encoder_inst
top.u_connector.u_connector.axi_crossbar_inst1.axi_crossbar_rd_inst.s_ifaces[2].r_arb_inst.priority_encoder_masked
top.u_connector.u_connector.axi_crossbar_inst1.axi_crossbar_rd_inst.s_ifaces[2].reg_inst
top.u_connector.u_connector.axi_crossbar_inst1.axi_crossbar_rd_inst.m_ifaces[0].a_arb_inst
top.u_connector.u_connector.axi_crossbar_inst1.axi_crossbar_rd_inst.m_ifaces[0].a_arb_inst.priority_encoder_inst
top.u_connector.u_connector.axi_crossbar_inst1.axi_crossbar_rd_inst.m_ifaces[0].a_arb_inst.priority_encoder_masked
top.u_connector.u_connector.axi_crossbar_inst1.axi_crossbar_rd_inst.m_ifaces[0].reg_inst
top.u_connector.u_connector.axi_crossbar_inst1.axi_crossbar_rd_inst.m_ifaces[1].a_arb_inst
top.u_connector.u_connector.axi_crossbar_inst1.axi_crossbar_rd_inst.m_ifaces[1].a_arb_inst.priority_encoder_inst
top.u_connector.u_connector.axi_crossbar_inst1.axi_crossbar_rd_inst.m_ifaces[1].a_arb_inst.priority_encoder_masked
top.u_connector.u_connector.axi_crossbar_inst1.axi_crossbar_rd_inst.m_ifaces[1].reg_inst
top.u_connector.u_connector.axi_crossbar_inst1.axi_crossbar_rd_inst.m_ifaces[2].a_arb_inst
top.u_connector.u_connector.axi_crossbar_inst1.axi_crossbar_rd_inst.m_ifaces[2].a_arb_inst.priority_encoder_inst
top.u_connector.u_connector.axi_crossbar_inst1.axi_crossbar_rd_inst.m_ifaces[2].a_arb_inst.priority_encoder_masked
top.u_connector.u_connector.axi_crossbar_inst1.axi_crossbar_rd_inst.m_ifaces[2].reg_inst
top.u_connector.u_connector.axi_crossbar_inst1.axi_crossbar_rd_inst.m_ifaces[3].a_arb_inst
top.u_connector.u_connector.axi_crossbar_inst1.axi_crossbar_rd_inst.m_ifaces[3].a_arb_inst.priority_encoder_inst
top.u_connector.u_connector.axi_crossbar_inst1.axi_crossbar_rd_inst.m_ifaces[3].a_arb_inst.priority_encoder_masked
top.u_connector.u_connector.axi_crossbar_inst1.axi_crossbar_rd_inst.m_ifaces[3].reg_inst
top.u_connector.u_connector.axi_crossbar_inst2
top.u_connector.u_connector.axi_crossbar_inst2.axi_crossbar_wr_inst
top.u_connector.u_connector.axi_crossbar_inst2.axi_crossbar_wr_inst.s_ifaces[0].addr_inst
top.u_connector.u_connector.axi_crossbar_inst2.axi_crossbar_wr_inst.s_ifaces[0].b_arb_inst
top.u_connector.u_connector.axi_crossbar_inst2.axi_crossbar_wr_inst.s_ifaces[0].b_arb_inst.priority_encoder_inst
top.u_connector.u_connector.axi_crossbar_inst2.axi_crossbar_wr_inst.s_ifaces[0].b_arb_inst.priority_encoder_masked
top.u_connector.u_connector.axi_crossbar_inst2.axi_crossbar_wr_inst.s_ifaces[0].reg_inst
top.u_connector.u_connector.axi_crossbar_inst2.axi_crossbar_wr_inst.s_ifaces[1].addr_inst
top.u_connector.u_connector.axi_crossbar_inst2.axi_crossbar_wr_inst.s_ifaces[1].b_arb_inst
top.u_connector.u_connector.axi_crossbar_inst2.axi_crossbar_wr_inst.s_ifaces[1].b_arb_inst.priority_encoder_inst
top.u_connector.u_connector.axi_crossbar_inst2.axi_crossbar_wr_inst.s_ifaces[1].b_arb_inst.priority_encoder_masked
top.u_connector.u_connector.axi_crossbar_inst2.axi_crossbar_wr_inst.s_ifaces[1].reg_inst
top.u_connector.u_connector.axi_crossbar_inst2.axi_crossbar_wr_inst.s_ifaces[2].addr_inst
top.u_connector.u_connector.axi_crossbar_inst2.axi_crossbar_wr_inst.s_ifaces[2].b_arb_inst
top.u_connector.u_connector.axi_crossbar_inst2.axi_crossbar_wr_inst.s_ifaces[2].b_arb_inst.priority_encoder_inst
top.u_connector.u_connector.axi_crossbar_inst2.axi_crossbar_wr_inst.s_ifaces[2].b_arb_inst.priority_encoder_masked
top.u_connector.u_connector.axi_crossbar_inst2.axi_crossbar_wr_inst.s_ifaces[2].reg_inst
top.u_connector.u_connector.axi_crossbar_inst2.axi_crossbar_wr_inst.m_ifaces[0].a_arb_inst
top.u_connector.u_connector.axi_crossbar_inst2.axi_crossbar_wr_inst.m_ifaces[0].a_arb_inst.priority_encoder_inst
top.u_connector.u_connector.axi_crossbar_inst2.axi_crossbar_wr_inst.m_ifaces[0].a_arb_inst.priority_encoder_masked
top.u_connector.u_connector.axi_crossbar_inst2.axi_crossbar_wr_inst.m_ifaces[0].reg_inst
top.u_connector.u_connector.axi_crossbar_inst2.axi_crossbar_wr_inst.m_ifaces[1].a_arb_inst
top.u_connector.u_connector.axi_crossbar_inst2.axi_crossbar_wr_inst.m_ifaces[1].a_arb_inst.priority_encoder_inst
top.u_connector.u_connector.axi_crossbar_inst2.axi_crossbar_wr_inst.m_ifaces[1].a_arb_inst.priority_encoder_masked
top.u_connector.u_connector.axi_crossbar_inst2.axi_crossbar_wr_inst.m_ifaces[1].reg_inst
top.u_connector.u_connector.axi_crossbar_inst2.axi_crossbar_wr_inst.m_ifaces[2].a_arb_inst
top.u_connector.u_connector.axi_crossbar_inst2.axi_crossbar_wr_inst.m_ifaces[2].a_arb_inst.priority_encoder_inst
top.u_connector.u_connector.axi_crossbar_inst2.axi_crossbar_wr_inst.m_ifaces[2].a_arb_inst.priority_encoder_masked
top.u_connector.u_connector.axi_crossbar_inst2.axi_crossbar_wr_inst.m_ifaces[2].reg_inst
top.u_connector.u_connector.axi_crossbar_inst2.axi_crossbar_wr_inst.m_ifaces[3].a_arb_inst
top.u_connector.u_connector.axi_crossbar_inst2.axi_crossbar_wr_inst.m_ifaces[3].a_arb_inst.priority_encoder_inst
top.u_connector.u_connector.axi_crossbar_inst2.axi_crossbar_wr_inst.m_ifaces[3].a_arb_inst.priority_encoder_masked
top.u_connector.u_connector.axi_crossbar_inst2.axi_crossbar_wr_inst.m_ifaces[3].reg_inst
top.u_connector.u_connector.axi_crossbar_inst2.axi_crossbar_rd_inst
top.u_connector.u_connector.axi_crossbar_inst2.axi_crossbar_rd_inst.s_ifaces[0].addr_inst
top.u_connector.u_connector.axi_crossbar_inst2.axi_crossbar_rd_inst.s_ifaces[0].r_arb_inst
top.u_connector.u_connector.axi_crossbar_inst2.axi_crossbar_rd_inst.s_ifaces[0].r_arb_inst.priority_encoder_inst
top.u_connector.u_connector.axi_crossbar_inst2.axi_crossbar_rd_inst.s_ifaces[0].r_arb_inst.priority_encoder_masked
top.u_connector.u_connector.axi_crossbar_inst2.axi_crossbar_rd_inst.s_ifaces[0].reg_inst
top.u_connector.u_connector.axi_crossbar_inst2.axi_crossbar_rd_inst.s_ifaces[1].addr_inst
top.u_connector.u_connector.axi_crossbar_inst2.axi_crossbar_rd_inst.s_ifaces[1].r_arb_inst
top.u_connector.u_connector.axi_crossbar_inst2.axi_crossbar_rd_inst.s_ifaces[1].r_arb_inst.priority_encoder_inst
top.u_connector.u_connector.axi_crossbar_inst2.axi_crossbar_rd_inst.s_ifaces[1].r_arb_inst.priority_encoder_masked
top.u_connector.u_connector.axi_crossbar_inst2.axi_crossbar_rd_inst.s_ifaces[1].reg_inst
top.u_connector.u_connector.axi_crossbar_inst2.axi_crossbar_rd_inst.s_ifaces[2].addr_inst
top.u_connector.u_connector.axi_crossbar_inst2.axi_crossbar_rd_inst.s_ifaces[2].r_arb_inst
top.u_connector.u_connector.axi_crossbar_inst2.axi_crossbar_rd_inst.s_ifaces[2].r_arb_inst.priority_encoder_inst
top.u_connector.u_connector.axi_crossbar_inst2.axi_crossbar_rd_inst.s_ifaces[2].r_arb_inst.priority_encoder_masked
top.u_connector.u_connector.axi_crossbar_inst2.axi_crossbar_rd_inst.s_ifaces[2].reg_inst
top.u_connector.u_connector.axi_crossbar_inst2.axi_crossbar_rd_inst.m_ifaces[0].a_arb_inst
top.u_connector.u_connector.axi_crossbar_inst2.axi_crossbar_rd_inst.m_ifaces[0].a_arb_inst.priority_encoder_inst
top.u_connector.u_connector.axi_crossbar_inst2.axi_crossbar_rd_inst.m_ifaces[0].a_arb_inst.priority_encoder_masked
top.u_connector.u_connector.axi_crossbar_inst2.axi_crossbar_rd_inst.m_ifaces[0].reg_inst
top.u_connector.u_connector.axi_crossbar_inst2.axi_crossbar_rd_inst.m_ifaces[1].a_arb_inst
top.u_connector.u_connector.axi_crossbar_inst2.axi_crossbar_rd_inst.m_ifaces[1].a_arb_inst.priority_encoder_inst
top.u_connector.u_connector.axi_crossbar_inst2.axi_crossbar_rd_inst.m_ifaces[1].a_arb_inst.priority_encoder_masked
top.u_connector.u_connector.axi_crossbar_inst2.axi_crossbar_rd_inst.m_ifaces[1].reg_inst
top.u_connector.u_connector.axi_crossbar_inst2.axi_crossbar_rd_inst.m_ifaces[2].a_arb_inst
top.u_connector.u_connector.axi_crossbar_inst2.axi_crossbar_rd_inst.m_ifaces[2].a_arb_inst.priority_encoder_inst
top.u_connector.u_connector.axi_crossbar_inst2.axi_crossbar_rd_inst.m_ifaces[2].a_arb_inst.priority_encoder_masked
top.u_connector.u_connector.axi_crossbar_inst2.axi_crossbar_rd_inst.m_ifaces[2].reg_inst
top.u_connector.u_connector.axi_crossbar_inst2.axi_crossbar_rd_inst.m_ifaces[3].a_arb_inst
top.u_connector.u_connector.axi_crossbar_inst2.axi_crossbar_rd_inst.m_ifaces[3].a_arb_inst.priority_encoder_inst
top.u_connector.u_connector.axi_crossbar_inst2.axi_crossbar_rd_inst.m_ifaces[3].a_arb_inst.priority_encoder_masked
top.u_connector.u_connector.axi_crossbar_inst2.axi_crossbar_rd_inst.m_ifaces[3].reg_inst
top.u_connector.u_connector.u_axi_tmr_voter_ds
top.u_connector.u_connector.u_axi_tmr_voter_ds.u_axi_tmr_voter_ds_1m3s_inst0
top.u_connector.u_connector.u_axi_tmr_voter_ds.u_axi_tmr_voter_ds_1m3s_inst0.u_awlock
top.u_connector.u_connector.u_axi_tmr_voter_ds.u_axi_tmr_voter_ds_1m3s_inst0.u_awvalid
top.u_connector.u_connector.u_axi_tmr_voter_ds.u_axi_tmr_voter_ds_1m3s_inst0.u_wlast
top.u_connector.u_connector.u_axi_tmr_voter_ds.u_axi_tmr_voter_ds_1m3s_inst0.u_wvalid
top.u_connector.u_connector.u_axi_tmr_voter_ds.u_axi_tmr_voter_ds_1m3s_inst0.u_bready
top.u_connector.u_connector.u_axi_tmr_voter_ds.u_axi_tmr_voter_ds_1m3s_inst0.u_arlock
top.u_connector.u_connector.u_axi_tmr_voter_ds.u_axi_tmr_voter_ds_1m3s_inst0.u_arvalid
top.u_connector.u_connector.u_axi_tmr_voter_ds.u_axi_tmr_voter_ds_1m3s_inst0.u_rready
top.u_connector.u_connector.u_axi_tmr_voter_ds.u_axi_tmr_voter_ds_1m3s_inst0.genblk1[0].u_awid
top.u_connector.u_connector.u_axi_tmr_voter_ds.u_axi_tmr_voter_ds_1m3s_inst0.genblk1[1].u_awid
top.u_connector.u_connector.u_axi_tmr_voter_ds.u_axi_tmr_voter_ds_1m3s_inst0.genblk1[2].u_awid
top.u_connector.u_connector.u_axi_tmr_voter_ds.u_axi_tmr_voter_ds_1m3s_inst0.genblk1[3].u_awid
top.u_connector.u_connector.u_axi_tmr_voter_ds.u_axi_tmr_voter_ds_1m3s_inst0.genblk1[4].u_awid
top.u_connector.u_connector.u_axi_tmr_voter_ds.u_axi_tmr_voter_ds_1m3s_inst0.genblk1[5].u_awid
top.u_connector.u_connector.u_axi_tmr_voter_ds.u_axi_tmr_voter_ds_1m3s_inst0.genblk1[6].u_awid
top.u_connector.u_connector.u_axi_tmr_voter_ds.u_axi_tmr_voter_ds_1m3s_inst0.genblk1[7].u_awid
top.u_connector.u_connector.u_axi_tmr_voter_ds.u_axi_tmr_voter_ds_1m3s_inst0.genblk1[8].u_awid
top.u_connector.u_connector.u_axi_tmr_voter_ds.u_axi_tmr_voter_ds_1m3s_inst0.genblk1[9].u_awid
top.u_connector.u_connector.u_axi_tmr_voter_ds.u_axi_tmr_voter_ds_1m3s_inst0.genblk2[0].u_awaddr
top.u_connector.u_connector.u_axi_tmr_voter_ds.u_axi_tmr_voter_ds_1m3s_inst0.genblk2[1].u_awaddr
top.u_connector.u_connector.u_axi_tmr_voter_ds.u_axi_tmr_voter_ds_1m3s_inst0.genblk2[2].u_awaddr
top.u_connector.u_connector.u_axi_tmr_voter_ds.u_axi_tmr_voter_ds_1m3s_inst0.genblk2[3].u_awaddr
top.u_connector.u_connector.u_axi_tmr_voter_ds.u_axi_tmr_voter_ds_1m3s_inst0.genblk2[4].u_awaddr
top.u_connector.u_connector.u_axi_tmr_voter_ds.u_axi_tmr_voter_ds_1m3s_inst0.genblk2[5].u_awaddr
top.u_connector.u_connector.u_axi_tmr_voter_ds.u_axi_tmr_voter_ds_1m3s_inst0.genblk2[6].u_awaddr
top.u_connector.u_connector.u_axi_tmr_voter_ds.u_axi_tmr_voter_ds_1m3s_inst0.genblk2[7].u_awaddr
top.u_connector.u_connector.u_axi_tmr_voter_ds.u_axi_tmr_voter_ds_1m3s_inst0.genblk2[8].u_awaddr
top.u_connector.u_connector.u_axi_tmr_voter_ds.u_axi_tmr_voter_ds_1m3s_inst0.genblk2[9].u_awaddr
top.u_connector.u_connector.u_axi_tmr_voter_ds.u_axi_tmr_voter_ds_1m3s_inst0.genblk2[10].u_awaddr
top.u_connector.u_connector.u_axi_tmr_voter_ds.u_axi_tmr_voter_ds_1m3s_inst0.genblk2[11].u_awaddr
top.u_connector.u_connector.u_axi_tmr_voter_ds.u_axi_tmr_voter_ds_1m3s_inst0.genblk2[12].u_awaddr
top.u_connector.u_connector.u_axi_tmr_voter_ds.u_axi_tmr_voter_ds_1m3s_inst0.genblk2[13].u_awaddr
top.u_connector.u_connector.u_axi_tmr_voter_ds.u_axi_tmr_voter_ds_1m3s_inst0.genblk2[14].u_awaddr
top.u_connector.u_connector.u_axi_tmr_voter_ds.u_axi_tmr_voter_ds_1m3s_inst0.genblk2[15].u_awaddr
top.u_connector.u_connector.u_axi_tmr_voter_ds.u_axi_tmr_voter_ds_1m3s_inst0.genblk2[16].u_awaddr
top.u_connector.u_connector.u_axi_tmr_voter_ds.u_axi_tmr_voter_ds_1m3s_inst0.genblk2[17].u_awaddr
top.u_connector.u_connector.u_axi_tmr_voter_ds.u_axi_tmr_voter_ds_1m3s_inst0.genblk2[18].u_awaddr
top.u_connector.u_connector.u_axi_tmr_voter_ds.u_axi_tmr_voter_ds_1m3s_inst0.genblk2[19].u_awaddr
top.u_connector.u_connector.u_axi_tmr_voter_ds.u_axi_tmr_voter_ds_1m3s_inst0.genblk2[20].u_awaddr
top.u_connector.u_connector.u_axi_tmr_voter_ds.u_axi_tmr_voter_ds_1m3s_inst0.genblk2[21].u_awaddr
top.u_connector.u_connector.u_axi_tmr_voter_ds.u_axi_tmr_voter_ds_1m3s_inst0.genblk2[22].u_awaddr
top.u_connector.u_connector.u_axi_tmr_voter_ds.u_axi_tmr_voter_ds_1m3s_inst0.genblk2[23].u_awaddr
top.u_connector.u_connector.u_axi_tmr_voter_ds.u_axi_tmr_voter_ds_1m3s_inst0.genblk2[24].u_awaddr
top.u_connector.u_connector.u_axi_tmr_voter_ds.u_axi_tmr_voter_ds_1m3s_inst0.genblk2[25].u_awaddr
top.u_connector.u_connector.u_axi_tmr_voter_ds.u_axi_tmr_voter_ds_1m3s_inst0.genblk2[26].u_awaddr
top.u_connector.u_connector.u_axi_tmr_voter_ds.u_axi_tmr_voter_ds_1m3s_inst0.genblk2[27].u_awaddr
top.u_connector.u_connector.u_axi_tmr_voter_ds.u_axi_tmr_voter_ds_1m3s_inst0.genblk2[28].u_awaddr
top.u_connector.u_connector.u_axi_tmr_voter_ds.u_axi_tmr_voter_ds_1m3s_inst0.genblk2[29].u_awaddr
top.u_connector.u_connector.u_axi_tmr_voter_ds.u_axi_tmr_voter_ds_1m3s_inst0.genblk2[30].u_awaddr
top.u_connector.u_connector.u_axi_tmr_voter_ds.u_axi_tmr_voter_ds_1m3s_inst0.genblk2[31].u_awaddr
top.u_connector.u_connector.u_axi_tmr_voter_ds.u_axi_tmr_voter_ds_1m3s_inst0.genblk3[0].u_awlen
top.u_connector.u_connector.u_axi_tmr_voter_ds.u_axi_tmr_voter_ds_1m3s_inst0.genblk3[1].u_awlen
top.u_connector.u_connector.u_axi_tmr_voter_ds.u_axi_tmr_voter_ds_1m3s_inst0.genblk3[2].u_awlen
top.u_connector.u_connector.u_axi_tmr_voter_ds.u_axi_tmr_voter_ds_1m3s_inst0.genblk3[3].u_awlen
top.u_connector.u_connector.u_axi_tmr_voter_ds.u_axi_tmr_voter_ds_1m3s_inst0.genblk3[4].u_awlen
top.u_connector.u_connector.u_axi_tmr_voter_ds.u_axi_tmr_voter_ds_1m3s_inst0.genblk3[5].u_awlen
top.u_connector.u_connector.u_axi_tmr_voter_ds.u_axi_tmr_voter_ds_1m3s_inst0.genblk3[6].u_awlen
top.u_connector.u_connector.u_axi_tmr_voter_ds.u_axi_tmr_voter_ds_1m3s_inst0.genblk3[7].u_awlen
top.u_connector.u_connector.u_axi_tmr_voter_ds.u_axi_tmr_voter_ds_1m3s_inst0.genblk4[0].u_awsize
top.u_connector.u_connector.u_axi_tmr_voter_ds.u_axi_tmr_voter_ds_1m3s_inst0.genblk4[1].u_awsize
top.u_connector.u_connector.u_axi_tmr_voter_ds.u_axi_tmr_voter_ds_1m3s_inst0.genblk4[2].u_awsize
top.u_connector.u_connector.u_axi_tmr_voter_ds.u_axi_tmr_voter_ds_1m3s_inst0.genblk5[0].u_awburst
top.u_connector.u_connector.u_axi_tmr_voter_ds.u_axi_tmr_voter_ds_1m3s_inst0.genblk5[1].u_awburst
top.u_connector.u_connector.u_axi_tmr_voter_ds.u_axi_tmr_voter_ds_1m3s_inst0.genblk6[0].u_awcache
top.u_connector.u_connector.u_axi_tmr_voter_ds.u_axi_tmr_voter_ds_1m3s_inst0.genblk6[1].u_awcache
top.u_connector.u_connector.u_axi_tmr_voter_ds.u_axi_tmr_voter_ds_1m3s_inst0.genblk6[2].u_awcache
top.u_connector.u_connector.u_axi_tmr_voter_ds.u_axi_tmr_voter_ds_1m3s_inst0.genblk6[3].u_awcache
top.u_connector.u_connector.u_axi_tmr_voter_ds.u_axi_tmr_voter_ds_1m3s_inst0.genblk7[0].u_awprot
top.u_connector.u_connector.u_axi_tmr_voter_ds.u_axi_tmr_voter_ds_1m3s_inst0.genblk7[1].u_awprot
top.u_connector.u_connector.u_axi_tmr_voter_ds.u_axi_tmr_voter_ds_1m3s_inst0.genblk7[2].u_awprot
top.u_connector.u_connector.u_axi_tmr_voter_ds.u_axi_tmr_voter_ds_1m3s_inst0.genblk8[0].u_awqos
top.u_connector.u_connector.u_axi_tmr_voter_ds.u_axi_tmr_voter_ds_1m3s_inst0.genblk8[1].u_awqos
top.u_connector.u_connector.u_axi_tmr_voter_ds.u_axi_tmr_voter_ds_1m3s_inst0.genblk8[2].u_awqos
top.u_connector.u_connector.u_axi_tmr_voter_ds.u_axi_tmr_voter_ds_1m3s_inst0.genblk8[3].u_awqos
top.u_connector.u_connector.u_axi_tmr_voter_ds.u_axi_tmr_voter_ds_1m3s_inst0.genblk9[0].u_awregion
top.u_connector.u_connector.u_axi_tmr_voter_ds.u_axi_tmr_voter_ds_1m3s_inst0.genblk9[1].u_awregion
top.u_connector.u_connector.u_axi_tmr_voter_ds.u_axi_tmr_voter_ds_1m3s_inst0.genblk9[2].u_awregion
top.u_connector.u_connector.u_axi_tmr_voter_ds.u_axi_tmr_voter_ds_1m3s_inst0.genblk9[3].u_awregion
top.u_connector.u_connector.u_axi_tmr_voter_ds.u_axi_tmr_voter_ds_1m3s_inst0.genblk10[0].u_awuser
top.u_connector.u_connector.u_axi_tmr_voter_ds.u_axi_tmr_voter_ds_1m3s_inst0.genblk11[0].u_wdata
top.u_connector.u_connector.u_axi_tmr_voter_ds.u_axi_tmr_voter_ds_1m3s_inst0.genblk11[1].u_wdata
top.u_connector.u_connector.u_axi_tmr_voter_ds.u_axi_tmr_voter_ds_1m3s_inst0.genblk11[2].u_wdata
top.u_connector.u_connector.u_axi_tmr_voter_ds.u_axi_tmr_voter_ds_1m3s_inst0.genblk11[3].u_wdata
top.u_connector.u_connector.u_axi_tmr_voter_ds.u_axi_tmr_voter_ds_1m3s_inst0.genblk11[4].u_wdata
top.u_connector.u_connector.u_axi_tmr_voter_ds.u_axi_tmr_voter_ds_1m3s_inst0.genblk11[5].u_wdata
top.u_connector.u_connector.u_axi_tmr_voter_ds.u_axi_tmr_voter_ds_1m3s_inst0.genblk11[6].u_wdata
top.u_connector.u_connector.u_axi_tmr_voter_ds.u_axi_tmr_voter_ds_1m3s_inst0.genblk11[7].u_wdata
top.u_connector.u_connector.u_axi_tmr_voter_ds.u_axi_tmr_voter_ds_1m3s_inst0.genblk11[8].u_wdata
top.u_connector.u_connector.u_axi_tmr_voter_ds.u_axi_tmr_voter_ds_1m3s_inst0.genblk11[9].u_wdata
top.u_connector.u_connector.u_axi_tmr_voter_ds.u_axi_tmr_voter_ds_1m3s_inst0.genblk11[10].u_wdata
top.u_connector.u_connector.u_axi_tmr_voter_ds.u_axi_tmr_voter_ds_1m3s_inst0.genblk11[11].u_wdata
top.u_connector.u_connector.u_axi_tmr_voter_ds.u_axi_tmr_voter_ds_1m3s_inst0.genblk11[12].u_wdata
top.u_connector.u_connector.u_axi_tmr_voter_ds.u_axi_tmr_voter_ds_1m3s_inst0.genblk11[13].u_wdata
top.u_connector.u_connector.u_axi_tmr_voter_ds.u_axi_tmr_voter_ds_1m3s_inst0.genblk11[14].u_wdata
top.u_connector.u_connector.u_axi_tmr_voter_ds.u_axi_tmr_voter_ds_1m3s_inst0.genblk11[15].u_wdata
top.u_connector.u_connector.u_axi_tmr_voter_ds.u_axi_tmr_voter_ds_1m3s_inst0.genblk11[16].u_wdata
top.u_connector.u_connector.u_axi_tmr_voter_ds.u_axi_tmr_voter_ds_1m3s_inst0.genblk11[17].u_wdata
top.u_connector.u_connector.u_axi_tmr_voter_ds.u_axi_tmr_voter_ds_1m3s_inst0.genblk11[18].u_wdata
top.u_connector.u_connector.u_axi_tmr_voter_ds.u_axi_tmr_voter_ds_1m3s_inst0.genblk11[19].u_wdata
top.u_connector.u_connector.u_axi_tmr_voter_ds.u_axi_tmr_voter_ds_1m3s_inst0.genblk11[20].u_wdata
top.u_connector.u_connector.u_axi_tmr_voter_ds.u_axi_tmr_voter_ds_1m3s_inst0.genblk11[21].u_wdata
top.u_connector.u_connector.u_axi_tmr_voter_ds.u_axi_tmr_voter_ds_1m3s_inst0.genblk11[22].u_wdata
top.u_connector.u_connector.u_axi_tmr_voter_ds.u_axi_tmr_voter_ds_1m3s_inst0.genblk11[23].u_wdata
top.u_connector.u_connector.u_axi_tmr_voter_ds.u_axi_tmr_voter_ds_1m3s_inst0.genblk11[24].u_wdata
top.u_connector.u_connector.u_axi_tmr_voter_ds.u_axi_tmr_voter_ds_1m3s_inst0.genblk11[25].u_wdata
top.u_connector.u_connector.u_axi_tmr_voter_ds.u_axi_tmr_voter_ds_1m3s_inst0.genblk11[26].u_wdata
top.u_connector.u_connector.u_axi_tmr_voter_ds.u_axi_tmr_voter_ds_1m3s_inst0.genblk11[27].u_wdata
top.u_connector.u_connector.u_axi_tmr_voter_ds.u_axi_tmr_voter_ds_1m3s_inst0.genblk11[28].u_wdata
top.u_connector.u_connector.u_axi_tmr_voter_ds.u_axi_tmr_voter_ds_1m3s_inst0.genblk11[29].u_wdata
top.u_connector.u_connector.u_axi_tmr_voter_ds.u_axi_tmr_voter_ds_1m3s_inst0.genblk11[30].u_wdata
top.u_connector.u_connector.u_axi_tmr_voter_ds.u_axi_tmr_voter_ds_1m3s_inst0.genblk11[31].u_wdata
top.u_connector.u_connector.u_axi_tmr_voter_ds.u_axi_tmr_voter_ds_1m3s_inst0.genblk11[32].u_wdata
top.u_connector.u_connector.u_axi_tmr_voter_ds.u_axi_tmr_voter_ds_1m3s_inst0.genblk11[33].u_wdata
top.u_connector.u_connector.u_axi_tmr_voter_ds.u_axi_tmr_voter_ds_1m3s_inst0.genblk11[34].u_wdata
top.u_connector.u_connector.u_axi_tmr_voter_ds.u_axi_tmr_voter_ds_1m3s_inst0.genblk11[35].u_wdata
top.u_connector.u_connector.u_axi_tmr_voter_ds.u_axi_tmr_voter_ds_1m3s_inst0.genblk11[36].u_wdata
top.u_connector.u_connector.u_axi_tmr_voter_ds.u_axi_tmr_voter_ds_1m3s_inst0.genblk11[37].u_wdata
top.u_connector.u_connector.u_axi_tmr_voter_ds.u_axi_tmr_voter_ds_1m3s_inst0.genblk11[38].u_wdata
top.u_connector.u_connector.u_axi_tmr_voter_ds.u_axi_tmr_voter_ds_1m3s_inst0.genblk11[39].u_wdata
top.u_connector.u_connector.u_axi_tmr_voter_ds.u_axi_tmr_voter_ds_1m3s_inst0.genblk11[40].u_wdata
top.u_connector.u_connector.u_axi_tmr_voter_ds.u_axi_tmr_voter_ds_1m3s_inst0.genblk11[41].u_wdata
top.u_connector.u_connector.u_axi_tmr_voter_ds.u_axi_tmr_voter_ds_1m3s_inst0.genblk11[42].u_wdata
top.u_connector.u_connector.u_axi_tmr_voter_ds.u_axi_tmr_voter_ds_1m3s_inst0.genblk11[43].u_wdata
top.u_connector.u_connector.u_axi_tmr_voter_ds.u_axi_tmr_voter_ds_1m3s_inst0.genblk11[44].u_wdata
top.u_connector.u_connector.u_axi_tmr_voter_ds.u_axi_tmr_voter_ds_1m3s_inst0.genblk11[45].u_wdata
top.u_connector.u_connector.u_axi_tmr_voter_ds.u_axi_tmr_voter_ds_1m3s_inst0.genblk11[46].u_wdata
top.u_connector.u_connector.u_axi_tmr_voter_ds.u_axi_tmr_voter_ds_1m3s_inst0.genblk11[47].u_wdata
top.u_connector.u_connector.u_axi_tmr_voter_ds.u_axi_tmr_voter_ds_1m3s_inst0.genblk11[48].u_wdata
top.u_connector.u_connector.u_axi_tmr_voter_ds.u_axi_tmr_voter_ds_1m3s_inst0.genblk11[49].u_wdata
top.u_connector.u_connector.u_axi_tmr_voter_ds.u_axi_tmr_voter_ds_1m3s_inst0.genblk11[50].u_wdata
top.u_connector.u_connector.u_axi_tmr_voter_ds.u_axi_tmr_voter_ds_1m3s_inst0.genblk11[51].u_wdata
top.u_connector.u_connector.u_axi_tmr_voter_ds.u_axi_tmr_voter_ds_1m3s_inst0.genblk11[52].u_wdata
top.u_connector.u_connector.u_axi_tmr_voter_ds.u_axi_tmr_voter_ds_1m3s_inst0.genblk11[53].u_wdata
top.u_connector.u_connector.u_axi_tmr_voter_ds.u_axi_tmr_voter_ds_1m3s_inst0.genblk11[54].u_wdata
top.u_connector.u_connector.u_axi_tmr_voter_ds.u_axi_tmr_voter_ds_1m3s_inst0.genblk11[55].u_wdata
top.u_connector.u_connector.u_axi_tmr_voter_ds.u_axi_tmr_voter_ds_1m3s_inst0.genblk11[56].u_wdata
top.u_connector.u_connector.u_axi_tmr_voter_ds.u_axi_tmr_voter_ds_1m3s_inst0.genblk11[57].u_wdata
top.u_connector.u_connector.u_axi_tmr_voter_ds.u_axi_tmr_voter_ds_1m3s_inst0.genblk11[58].u_wdata
top.u_connector.u_connector.u_axi_tmr_voter_ds.u_axi_tmr_voter_ds_1m3s_inst0.genblk11[59].u_wdata
top.u_connector.u_connector.u_axi_tmr_voter_ds.u_axi_tmr_voter_ds_1m3s_inst0.genblk11[60].u_wdata
top.u_connector.u_connector.u_axi_tmr_voter_ds.u_axi_tmr_voter_ds_1m3s_inst0.genblk11[61].u_wdata
top.u_connector.u_connector.u_axi_tmr_voter_ds.u_axi_tmr_voter_ds_1m3s_inst0.genblk11[62].u_wdata
top.u_connector.u_connector.u_axi_tmr_voter_ds.u_axi_tmr_voter_ds_1m3s_inst0.genblk11[63].u_wdata
top.u_connector.u_connector.u_axi_tmr_voter_ds.u_axi_tmr_voter_ds_1m3s_inst0.genblk12[0].u_wstrb
top.u_connector.u_connector.u_axi_tmr_voter_ds.u_axi_tmr_voter_ds_1m3s_inst0.genblk12[1].u_wstrb
top.u_connector.u_connector.u_axi_tmr_voter_ds.u_axi_tmr_voter_ds_1m3s_inst0.genblk12[2].u_wstrb
top.u_connector.u_connector.u_axi_tmr_voter_ds.u_axi_tmr_voter_ds_1m3s_inst0.genblk12[3].u_wstrb
top.u_connector.u_connector.u_axi_tmr_voter_ds.u_axi_tmr_voter_ds_1m3s_inst0.genblk12[4].u_wstrb
top.u_connector.u_connector.u_axi_tmr_voter_ds.u_axi_tmr_voter_ds_1m3s_inst0.genblk12[5].u_wstrb
top.u_connector.u_connector.u_axi_tmr_voter_ds.u_axi_tmr_voter_ds_1m3s_inst0.genblk12[6].u_wstrb
top.u_connector.u_connector.u_axi_tmr_voter_ds.u_axi_tmr_voter_ds_1m3s_inst0.genblk12[7].u_wstrb
top.u_connector.u_connector.u_axi_tmr_voter_ds.u_axi_tmr_voter_ds_1m3s_inst0.genblk13[0].u_wuser
top.u_connector.u_connector.u_axi_tmr_voter_ds.u_axi_tmr_voter_ds_1m3s_inst0.genblk14[0].u_arid
top.u_connector.u_connector.u_axi_tmr_voter_ds.u_axi_tmr_voter_ds_1m3s_inst0.genblk14[1].u_arid
top.u_connector.u_connector.u_axi_tmr_voter_ds.u_axi_tmr_voter_ds_1m3s_inst0.genblk14[2].u_arid
top.u_connector.u_connector.u_axi_tmr_voter_ds.u_axi_tmr_voter_ds_1m3s_inst0.genblk14[3].u_arid
top.u_connector.u_connector.u_axi_tmr_voter_ds.u_axi_tmr_voter_ds_1m3s_inst0.genblk14[4].u_arid
top.u_connector.u_connector.u_axi_tmr_voter_ds.u_axi_tmr_voter_ds_1m3s_inst0.genblk14[5].u_arid
top.u_connector.u_connector.u_axi_tmr_voter_ds.u_axi_tmr_voter_ds_1m3s_inst0.genblk14[6].u_arid
top.u_connector.u_connector.u_axi_tmr_voter_ds.u_axi_tmr_voter_ds_1m3s_inst0.genblk14[7].u_arid
top.u_connector.u_connector.u_axi_tmr_voter_ds.u_axi_tmr_voter_ds_1m3s_inst0.genblk14[8].u_arid
top.u_connector.u_connector.u_axi_tmr_voter_ds.u_axi_tmr_voter_ds_1m3s_inst0.genblk14[9].u_arid
top.u_connector.u_connector.u_axi_tmr_voter_ds.u_axi_tmr_voter_ds_1m3s_inst0.genblk15[0].u_araddr
top.u_connector.u_connector.u_axi_tmr_voter_ds.u_axi_tmr_voter_ds_1m3s_inst0.genblk15[1].u_araddr
top.u_connector.u_connector.u_axi_tmr_voter_ds.u_axi_tmr_voter_ds_1m3s_inst0.genblk15[2].u_araddr
top.u_connector.u_connector.u_axi_tmr_voter_ds.u_axi_tmr_voter_ds_1m3s_inst0.genblk15[3].u_araddr
top.u_connector.u_connector.u_axi_tmr_voter_ds.u_axi_tmr_voter_ds_1m3s_inst0.genblk15[4].u_araddr
top.u_connector.u_connector.u_axi_tmr_voter_ds.u_axi_tmr_voter_ds_1m3s_inst0.genblk15[5].u_araddr
top.u_connector.u_connector.u_axi_tmr_voter_ds.u_axi_tmr_voter_ds_1m3s_inst0.genblk15[6].u_araddr
top.u_connector.u_connector.u_axi_tmr_voter_ds.u_axi_tmr_voter_ds_1m3s_inst0.genblk15[7].u_araddr
top.u_connector.u_connector.u_axi_tmr_voter_ds.u_axi_tmr_voter_ds_1m3s_inst0.genblk15[8].u_araddr
top.u_connector.u_connector.u_axi_tmr_voter_ds.u_axi_tmr_voter_ds_1m3s_inst0.genblk15[9].u_araddr
top.u_connector.u_connector.u_axi_tmr_voter_ds.u_axi_tmr_voter_ds_1m3s_inst0.genblk15[10].u_araddr
top.u_connector.u_connector.u_axi_tmr_voter_ds.u_axi_tmr_voter_ds_1m3s_inst0.genblk15[11].u_araddr
top.u_connector.u_connector.u_axi_tmr_voter_ds.u_axi_tmr_voter_ds_1m3s_inst0.genblk15[12].u_araddr
top.u_connector.u_connector.u_axi_tmr_voter_ds.u_axi_tmr_voter_ds_1m3s_inst0.genblk15[13].u_araddr
top.u_connector.u_connector.u_axi_tmr_voter_ds.u_axi_tmr_voter_ds_1m3s_inst0.genblk15[14].u_araddr
top.u_connector.u_connector.u_axi_tmr_voter_ds.u_axi_tmr_voter_ds_1m3s_inst0.genblk15[15].u_araddr
top.u_connector.u_connector.u_axi_tmr_voter_ds.u_axi_tmr_voter_ds_1m3s_inst0.genblk15[16].u_araddr
top.u_connector.u_connector.u_axi_tmr_voter_ds.u_axi_tmr_voter_ds_1m3s_inst0.genblk15[17].u_araddr
top.u_connector.u_connector.u_axi_tmr_voter_ds.u_axi_tmr_voter_ds_1m3s_inst0.genblk15[18].u_araddr
top.u_connector.u_connector.u_axi_tmr_voter_ds.u_axi_tmr_voter_ds_1m3s_inst0.genblk15[19].u_araddr
top.u_connector.u_connector.u_axi_tmr_voter_ds.u_axi_tmr_voter_ds_1m3s_inst0.genblk15[20].u_araddr
top.u_connector.u_connector.u_axi_tmr_voter_ds.u_axi_tmr_voter_ds_1m3s_inst0.genblk15[21].u_araddr
top.u_connector.u_connector.u_axi_tmr_voter_ds.u_axi_tmr_voter_ds_1m3s_inst0.genblk15[22].u_araddr
top.u_connector.u_connector.u_axi_tmr_voter_ds.u_axi_tmr_voter_ds_1m3s_inst0.genblk15[23].u_araddr
top.u_connector.u_connector.u_axi_tmr_voter_ds.u_axi_tmr_voter_ds_1m3s_inst0.genblk15[24].u_araddr
top.u_connector.u_connector.u_axi_tmr_voter_ds.u_axi_tmr_voter_ds_1m3s_inst0.genblk15[25].u_araddr
top.u_connector.u_connector.u_axi_tmr_voter_ds.u_axi_tmr_voter_ds_1m3s_inst0.genblk15[26].u_araddr
top.u_connector.u_connector.u_axi_tmr_voter_ds.u_axi_tmr_voter_ds_1m3s_inst0.genblk15[27].u_araddr
top.u_connector.u_connector.u_axi_tmr_voter_ds.u_axi_tmr_voter_ds_1m3s_inst0.genblk15[28].u_araddr
top.u_connector.u_connector.u_axi_tmr_voter_ds.u_axi_tmr_voter_ds_1m3s_inst0.genblk15[29].u_araddr
top.u_connector.u_connector.u_axi_tmr_voter_ds.u_axi_tmr_voter_ds_1m3s_inst0.genblk15[30].u_araddr
top.u_connector.u_connector.u_axi_tmr_voter_ds.u_axi_tmr_voter_ds_1m3s_inst0.genblk15[31].u_araddr
top.u_connector.u_connector.u_axi_tmr_voter_ds.u_axi_tmr_voter_ds_1m3s_inst0.genblk16[0].u_arlen
top.u_connector.u_connector.u_axi_tmr_voter_ds.u_axi_tmr_voter_ds_1m3s_inst0.genblk16[1].u_arlen
top.u_connector.u_connector.u_axi_tmr_voter_ds.u_axi_tmr_voter_ds_1m3s_inst0.genblk16[2].u_arlen
top.u_connector.u_connector.u_axi_tmr_voter_ds.u_axi_tmr_voter_ds_1m3s_inst0.genblk16[3].u_arlen
top.u_connector.u_connector.u_axi_tmr_voter_ds.u_axi_tmr_voter_ds_1m3s_inst0.genblk16[4].u_arlen
top.u_connector.u_connector.u_axi_tmr_voter_ds.u_axi_tmr_voter_ds_1m3s_inst0.genblk16[5].u_arlen
top.u_connector.u_connector.u_axi_tmr_voter_ds.u_axi_tmr_voter_ds_1m3s_inst0.genblk16[6].u_arlen
top.u_connector.u_connector.u_axi_tmr_voter_ds.u_axi_tmr_voter_ds_1m3s_inst0.genblk16[7].u_arlen
top.u_connector.u_connector.u_axi_tmr_voter_ds.u_axi_tmr_voter_ds_1m3s_inst0.genblk17[0].u_arsize
top.u_connector.u_connector.u_axi_tmr_voter_ds.u_axi_tmr_voter_ds_1m3s_inst0.genblk17[1].u_arsize
top.u_connector.u_connector.u_axi_tmr_voter_ds.u_axi_tmr_voter_ds_1m3s_inst0.genblk17[2].u_arsize
top.u_connector.u_connector.u_axi_tmr_voter_ds.u_axi_tmr_voter_ds_1m3s_inst0.genblk18[0].u_arburst
top.u_connector.u_connector.u_axi_tmr_voter_ds.u_axi_tmr_voter_ds_1m3s_inst0.genblk18[1].u_arburst
top.u_connector.u_connector.u_axi_tmr_voter_ds.u_axi_tmr_voter_ds_1m3s_inst0.genblk19[0].u_arcache
top.u_connector.u_connector.u_axi_tmr_voter_ds.u_axi_tmr_voter_ds_1m3s_inst0.genblk19[1].u_arcache
top.u_connector.u_connector.u_axi_tmr_voter_ds.u_axi_tmr_voter_ds_1m3s_inst0.genblk19[2].u_arcache
top.u_connector.u_connector.u_axi_tmr_voter_ds.u_axi_tmr_voter_ds_1m3s_inst0.genblk19[3].u_arcache
top.u_connector.u_connector.u_axi_tmr_voter_ds.u_axi_tmr_voter_ds_1m3s_inst0.genblk20[0].u_arprot
top.u_connector.u_connector.u_axi_tmr_voter_ds.u_axi_tmr_voter_ds_1m3s_inst0.genblk20[1].u_arprot
top.u_connector.u_connector.u_axi_tmr_voter_ds.u_axi_tmr_voter_ds_1m3s_inst0.genblk20[2].u_arprot
top.u_connector.u_connector.u_axi_tmr_voter_ds.u_axi_tmr_voter_ds_1m3s_inst0.genblk21[0].u_arqos
top.u_connector.u_connector.u_axi_tmr_voter_ds.u_axi_tmr_voter_ds_1m3s_inst0.genblk21[1].u_arqos
top.u_connector.u_connector.u_axi_tmr_voter_ds.u_axi_tmr_voter_ds_1m3s_inst0.genblk21[2].u_arqos
top.u_connector.u_connector.u_axi_tmr_voter_ds.u_axi_tmr_voter_ds_1m3s_inst0.genblk21[3].u_arqos
top.u_connector.u_connector.u_axi_tmr_voter_ds.u_axi_tmr_voter_ds_1m3s_inst0.genblk22[0].u_arregion
top.u_connector.u_connector.u_axi_tmr_voter_ds.u_axi_tmr_voter_ds_1m3s_inst0.genblk22[1].u_arregion
top.u_connector.u_connector.u_axi_tmr_voter_ds.u_axi_tmr_voter_ds_1m3s_inst0.genblk22[2].u_arregion
top.u_connector.u_connector.u_axi_tmr_voter_ds.u_axi_tmr_voter_ds_1m3s_inst0.genblk22[3].u_arregion
top.u_connector.u_connector.u_axi_tmr_voter_ds.u_axi_tmr_voter_ds_1m3s_inst0.genblk23[0].u_aruser
top.u_connector.u_connector.u_axi_tmr_voter_ds.u_axi_tmr_voter_ds_1m3s_inst1
top.u_connector.u_connector.u_axi_tmr_voter_ds.u_axi_tmr_voter_ds_1m3s_inst1.u_awlock
top.u_connector.u_connector.u_axi_tmr_voter_ds.u_axi_tmr_voter_ds_1m3s_inst1.u_awvalid
top.u_connector.u_connector.u_axi_tmr_voter_ds.u_axi_tmr_voter_ds_1m3s_inst1.u_wlast
top.u_connector.u_connector.u_axi_tmr_voter_ds.u_axi_tmr_voter_ds_1m3s_inst1.u_wvalid
top.u_connector.u_connector.u_axi_tmr_voter_ds.u_axi_tmr_voter_ds_1m3s_inst1.u_bready
top.u_connector.u_connector.u_axi_tmr_voter_ds.u_axi_tmr_voter_ds_1m3s_inst1.u_arlock
top.u_connector.u_connector.u_axi_tmr_voter_ds.u_axi_tmr_voter_ds_1m3s_inst1.u_arvalid
top.u_connector.u_connector.u_axi_tmr_voter_ds.u_axi_tmr_voter_ds_1m3s_inst1.u_rready
top.u_connector.u_connector.u_axi_tmr_voter_ds.u_axi_tmr_voter_ds_1m3s_inst1.genblk1[0].u_awid
top.u_connector.u_connector.u_axi_tmr_voter_ds.u_axi_tmr_voter_ds_1m3s_inst1.genblk1[1].u_awid
top.u_connector.u_connector.u_axi_tmr_voter_ds.u_axi_tmr_voter_ds_1m3s_inst1.genblk1[2].u_awid
top.u_connector.u_connector.u_axi_tmr_voter_ds.u_axi_tmr_voter_ds_1m3s_inst1.genblk1[3].u_awid
top.u_connector.u_connector.u_axi_tmr_voter_ds.u_axi_tmr_voter_ds_1m3s_inst1.genblk1[4].u_awid
top.u_connector.u_connector.u_axi_tmr_voter_ds.u_axi_tmr_voter_ds_1m3s_inst1.genblk1[5].u_awid
top.u_connector.u_connector.u_axi_tmr_voter_ds.u_axi_tmr_voter_ds_1m3s_inst1.genblk1[6].u_awid
top.u_connector.u_connector.u_axi_tmr_voter_ds.u_axi_tmr_voter_ds_1m3s_inst1.genblk1[7].u_awid
top.u_connector.u_connector.u_axi_tmr_voter_ds.u_axi_tmr_voter_ds_1m3s_inst1.genblk1[8].u_awid
top.u_connector.u_connector.u_axi_tmr_voter_ds.u_axi_tmr_voter_ds_1m3s_inst1.genblk1[9].u_awid
top.u_connector.u_connector.u_axi_tmr_voter_ds.u_axi_tmr_voter_ds_1m3s_inst1.genblk2[0].u_awaddr
top.u_connector.u_connector.u_axi_tmr_voter_ds.u_axi_tmr_voter_ds_1m3s_inst1.genblk2[1].u_awaddr
top.u_connector.u_connector.u_axi_tmr_voter_ds.u_axi_tmr_voter_ds_1m3s_inst1.genblk2[2].u_awaddr
top.u_connector.u_connector.u_axi_tmr_voter_ds.u_axi_tmr_voter_ds_1m3s_inst1.genblk2[3].u_awaddr
top.u_connector.u_connector.u_axi_tmr_voter_ds.u_axi_tmr_voter_ds_1m3s_inst1.genblk2[4].u_awaddr
top.u_connector.u_connector.u_axi_tmr_voter_ds.u_axi_tmr_voter_ds_1m3s_inst1.genblk2[5].u_awaddr
top.u_connector.u_connector.u_axi_tmr_voter_ds.u_axi_tmr_voter_ds_1m3s_inst1.genblk2[6].u_awaddr
top.u_connector.u_connector.u_axi_tmr_voter_ds.u_axi_tmr_voter_ds_1m3s_inst1.genblk2[7].u_awaddr
top.u_connector.u_connector.u_axi_tmr_voter_ds.u_axi_tmr_voter_ds_1m3s_inst1.genblk2[8].u_awaddr
top.u_connector.u_connector.u_axi_tmr_voter_ds.u_axi_tmr_voter_ds_1m3s_inst1.genblk2[9].u_awaddr
top.u_connector.u_connector.u_axi_tmr_voter_ds.u_axi_tmr_voter_ds_1m3s_inst1.genblk2[10].u_awaddr
top.u_connector.u_connector.u_axi_tmr_voter_ds.u_axi_tmr_voter_ds_1m3s_inst1.genblk2[11].u_awaddr
top.u_connector.u_connector.u_axi_tmr_voter_ds.u_axi_tmr_voter_ds_1m3s_inst1.genblk2[12].u_awaddr
top.u_connector.u_connector.u_axi_tmr_voter_ds.u_axi_tmr_voter_ds_1m3s_inst1.genblk2[13].u_awaddr
top.u_connector.u_connector.u_axi_tmr_voter_ds.u_axi_tmr_voter_ds_1m3s_inst1.genblk2[14].u_awaddr
top.u_connector.u_connector.u_axi_tmr_voter_ds.u_axi_tmr_voter_ds_1m3s_inst1.genblk2[15].u_awaddr
top.u_connector.u_connector.u_axi_tmr_voter_ds.u_axi_tmr_voter_ds_1m3s_inst1.genblk2[16].u_awaddr
top.u_connector.u_connector.u_axi_tmr_voter_ds.u_axi_tmr_voter_ds_1m3s_inst1.genblk2[17].u_awaddr
top.u_connector.u_connector.u_axi_tmr_voter_ds.u_axi_tmr_voter_ds_1m3s_inst1.genblk2[18].u_awaddr
top.u_connector.u_connector.u_axi_tmr_voter_ds.u_axi_tmr_voter_ds_1m3s_inst1.genblk2[19].u_awaddr
top.u_connector.u_connector.u_axi_tmr_voter_ds.u_axi_tmr_voter_ds_1m3s_inst1.genblk2[20].u_awaddr
top.u_connector.u_connector.u_axi_tmr_voter_ds.u_axi_tmr_voter_ds_1m3s_inst1.genblk2[21].u_awaddr
top.u_connector.u_connector.u_axi_tmr_voter_ds.u_axi_tmr_voter_ds_1m3s_inst1.genblk2[22].u_awaddr
top.u_connector.u_connector.u_axi_tmr_voter_ds.u_axi_tmr_voter_ds_1m3s_inst1.genblk2[23].u_awaddr
top.u_connector.u_connector.u_axi_tmr_voter_ds.u_axi_tmr_voter_ds_1m3s_inst1.genblk2[24].u_awaddr
top.u_connector.u_connector.u_axi_tmr_voter_ds.u_axi_tmr_voter_ds_1m3s_inst1.genblk2[25].u_awaddr
top.u_connector.u_connector.u_axi_tmr_voter_ds.u_axi_tmr_voter_ds_1m3s_inst1.genblk2[26].u_awaddr
top.u_connector.u_connector.u_axi_tmr_voter_ds.u_axi_tmr_voter_ds_1m3s_inst1.genblk2[27].u_awaddr
top.u_connector.u_connector.u_axi_tmr_voter_ds.u_axi_tmr_voter_ds_1m3s_inst1.genblk2[28].u_awaddr
top.u_connector.u_connector.u_axi_tmr_voter_ds.u_axi_tmr_voter_ds_1m3s_inst1.genblk2[29].u_awaddr
top.u_connector.u_connector.u_axi_tmr_voter_ds.u_axi_tmr_voter_ds_1m3s_inst1.genblk2[30].u_awaddr
top.u_connector.u_connector.u_axi_tmr_voter_ds.u_axi_tmr_voter_ds_1m3s_inst1.genblk2[31].u_awaddr
top.u_connector.u_connector.u_axi_tmr_voter_ds.u_axi_tmr_voter_ds_1m3s_inst1.genblk3[0].u_awlen
top.u_connector.u_connector.u_axi_tmr_voter_ds.u_axi_tmr_voter_ds_1m3s_inst1.genblk3[1].u_awlen
top.u_connector.u_connector.u_axi_tmr_voter_ds.u_axi_tmr_voter_ds_1m3s_inst1.genblk3[2].u_awlen
top.u_connector.u_connector.u_axi_tmr_voter_ds.u_axi_tmr_voter_ds_1m3s_inst1.genblk3[3].u_awlen
top.u_connector.u_connector.u_axi_tmr_voter_ds.u_axi_tmr_voter_ds_1m3s_inst1.genblk3[4].u_awlen
top.u_connector.u_connector.u_axi_tmr_voter_ds.u_axi_tmr_voter_ds_1m3s_inst1.genblk3[5].u_awlen
top.u_connector.u_connector.u_axi_tmr_voter_ds.u_axi_tmr_voter_ds_1m3s_inst1.genblk3[6].u_awlen
top.u_connector.u_connector.u_axi_tmr_voter_ds.u_axi_tmr_voter_ds_1m3s_inst1.genblk3[7].u_awlen
top.u_connector.u_connector.u_axi_tmr_voter_ds.u_axi_tmr_voter_ds_1m3s_inst1.genblk4[0].u_awsize
top.u_connector.u_connector.u_axi_tmr_voter_ds.u_axi_tmr_voter_ds_1m3s_inst1.genblk4[1].u_awsize
top.u_connector.u_connector.u_axi_tmr_voter_ds.u_axi_tmr_voter_ds_1m3s_inst1.genblk4[2].u_awsize
top.u_connector.u_connector.u_axi_tmr_voter_ds.u_axi_tmr_voter_ds_1m3s_inst1.genblk5[0].u_awburst
top.u_connector.u_connector.u_axi_tmr_voter_ds.u_axi_tmr_voter_ds_1m3s_inst1.genblk5[1].u_awburst
top.u_connector.u_connector.u_axi_tmr_voter_ds.u_axi_tmr_voter_ds_1m3s_inst1.genblk6[0].u_awcache
top.u_connector.u_connector.u_axi_tmr_voter_ds.u_axi_tmr_voter_ds_1m3s_inst1.genblk6[1].u_awcache
top.u_connector.u_connector.u_axi_tmr_voter_ds.u_axi_tmr_voter_ds_1m3s_inst1.genblk6[2].u_awcache
top.u_connector.u_connector.u_axi_tmr_voter_ds.u_axi_tmr_voter_ds_1m3s_inst1.genblk6[3].u_awcache
top.u_connector.u_connector.u_axi_tmr_voter_ds.u_axi_tmr_voter_ds_1m3s_inst1.genblk7[0].u_awprot
top.u_connector.u_connector.u_axi_tmr_voter_ds.u_axi_tmr_voter_ds_1m3s_inst1.genblk7[1].u_awprot
top.u_connector.u_connector.u_axi_tmr_voter_ds.u_axi_tmr_voter_ds_1m3s_inst1.genblk7[2].u_awprot
top.u_connector.u_connector.u_axi_tmr_voter_ds.u_axi_tmr_voter_ds_1m3s_inst1.genblk8[0].u_awqos
top.u_connector.u_connector.u_axi_tmr_voter_ds.u_axi_tmr_voter_ds_1m3s_inst1.genblk8[1].u_awqos
top.u_connector.u_connector.u_axi_tmr_voter_ds.u_axi_tmr_voter_ds_1m3s_inst1.genblk8[2].u_awqos
top.u_connector.u_connector.u_axi_tmr_voter_ds.u_axi_tmr_voter_ds_1m3s_inst1.genblk8[3].u_awqos
top.u_connector.u_connector.u_axi_tmr_voter_ds.u_axi_tmr_voter_ds_1m3s_inst1.genblk9[0].u_awregion
top.u_connector.u_connector.u_axi_tmr_voter_ds.u_axi_tmr_voter_ds_1m3s_inst1.genblk9[1].u_awregion
top.u_connector.u_connector.u_axi_tmr_voter_ds.u_axi_tmr_voter_ds_1m3s_inst1.genblk9[2].u_awregion
top.u_connector.u_connector.u_axi_tmr_voter_ds.u_axi_tmr_voter_ds_1m3s_inst1.genblk9[3].u_awregion
top.u_connector.u_connector.u_axi_tmr_voter_ds.u_axi_tmr_voter_ds_1m3s_inst1.genblk10[0].u_awuser
top.u_connector.u_connector.u_axi_tmr_voter_ds.u_axi_tmr_voter_ds_1m3s_inst1.genblk11[0].u_wdata
top.u_connector.u_connector.u_axi_tmr_voter_ds.u_axi_tmr_voter_ds_1m3s_inst1.genblk11[1].u_wdata
top.u_connector.u_connector.u_axi_tmr_voter_ds.u_axi_tmr_voter_ds_1m3s_inst1.genblk11[2].u_wdata
top.u_connector.u_connector.u_axi_tmr_voter_ds.u_axi_tmr_voter_ds_1m3s_inst1.genblk11[3].u_wdata
top.u_connector.u_connector.u_axi_tmr_voter_ds.u_axi_tmr_voter_ds_1m3s_inst1.genblk11[4].u_wdata
top.u_connector.u_connector.u_axi_tmr_voter_ds.u_axi_tmr_voter_ds_1m3s_inst1.genblk11[5].u_wdata
top.u_connector.u_connector.u_axi_tmr_voter_ds.u_axi_tmr_voter_ds_1m3s_inst1.genblk11[6].u_wdata
top.u_connector.u_connector.u_axi_tmr_voter_ds.u_axi_tmr_voter_ds_1m3s_inst1.genblk11[7].u_wdata
top.u_connector.u_connector.u_axi_tmr_voter_ds.u_axi_tmr_voter_ds_1m3s_inst1.genblk11[8].u_wdata
top.u_connector.u_connector.u_axi_tmr_voter_ds.u_axi_tmr_voter_ds_1m3s_inst1.genblk11[9].u_wdata
top.u_connector.u_connector.u_axi_tmr_voter_ds.u_axi_tmr_voter_ds_1m3s_inst1.genblk11[10].u_wdata
top.u_connector.u_connector.u_axi_tmr_voter_ds.u_axi_tmr_voter_ds_1m3s_inst1.genblk11[11].u_wdata
top.u_connector.u_connector.u_axi_tmr_voter_ds.u_axi_tmr_voter_ds_1m3s_inst1.genblk11[12].u_wdata
top.u_connector.u_connector.u_axi_tmr_voter_ds.u_axi_tmr_voter_ds_1m3s_inst1.genblk11[13].u_wdata
top.u_connector.u_connector.u_axi_tmr_voter_ds.u_axi_tmr_voter_ds_1m3s_inst1.genblk11[14].u_wdata
top.u_connector.u_connector.u_axi_tmr_voter_ds.u_axi_tmr_voter_ds_1m3s_inst1.genblk11[15].u_wdata
top.u_connector.u_connector.u_axi_tmr_voter_ds.u_axi_tmr_voter_ds_1m3s_inst1.genblk11[16].u_wdata
top.u_connector.u_connector.u_axi_tmr_voter_ds.u_axi_tmr_voter_ds_1m3s_inst1.genblk11[17].u_wdata
top.u_connector.u_connector.u_axi_tmr_voter_ds.u_axi_tmr_voter_ds_1m3s_inst1.genblk11[18].u_wdata
top.u_connector.u_connector.u_axi_tmr_voter_ds.u_axi_tmr_voter_ds_1m3s_inst1.genblk11[19].u_wdata
top.u_connector.u_connector.u_axi_tmr_voter_ds.u_axi_tmr_voter_ds_1m3s_inst1.genblk11[20].u_wdata
top.u_connector.u_connector.u_axi_tmr_voter_ds.u_axi_tmr_voter_ds_1m3s_inst1.genblk11[21].u_wdata
top.u_connector.u_connector.u_axi_tmr_voter_ds.u_axi_tmr_voter_ds_1m3s_inst1.genblk11[22].u_wdata
top.u_connector.u_connector.u_axi_tmr_voter_ds.u_axi_tmr_voter_ds_1m3s_inst1.genblk11[23].u_wdata
top.u_connector.u_connector.u_axi_tmr_voter_ds.u_axi_tmr_voter_ds_1m3s_inst1.genblk11[24].u_wdata
top.u_connector.u_connector.u_axi_tmr_voter_ds.u_axi_tmr_voter_ds_1m3s_inst1.genblk11[25].u_wdata
top.u_connector.u_connector.u_axi_tmr_voter_ds.u_axi_tmr_voter_ds_1m3s_inst1.genblk11[26].u_wdata
top.u_connector.u_connector.u_axi_tmr_voter_ds.u_axi_tmr_voter_ds_1m3s_inst1.genblk11[27].u_wdata
top.u_connector.u_connector.u_axi_tmr_voter_ds.u_axi_tmr_voter_ds_1m3s_inst1.genblk11[28].u_wdata
top.u_connector.u_connector.u_axi_tmr_voter_ds.u_axi_tmr_voter_ds_1m3s_inst1.genblk11[29].u_wdata
top.u_connector.u_connector.u_axi_tmr_voter_ds.u_axi_tmr_voter_ds_1m3s_inst1.genblk11[30].u_wdata
top.u_connector.u_connector.u_axi_tmr_voter_ds.u_axi_tmr_voter_ds_1m3s_inst1.genblk11[31].u_wdata
top.u_connector.u_connector.u_axi_tmr_voter_ds.u_axi_tmr_voter_ds_1m3s_inst1.genblk11[32].u_wdata
top.u_connector.u_connector.u_axi_tmr_voter_ds.u_axi_tmr_voter_ds_1m3s_inst1.genblk11[33].u_wdata
top.u_connector.u_connector.u_axi_tmr_voter_ds.u_axi_tmr_voter_ds_1m3s_inst1.genblk11[34].u_wdata
top.u_connector.u_connector.u_axi_tmr_voter_ds.u_axi_tmr_voter_ds_1m3s_inst1.genblk11[35].u_wdata
top.u_connector.u_connector.u_axi_tmr_voter_ds.u_axi_tmr_voter_ds_1m3s_inst1.genblk11[36].u_wdata
top.u_connector.u_connector.u_axi_tmr_voter_ds.u_axi_tmr_voter_ds_1m3s_inst1.genblk11[37].u_wdata
top.u_connector.u_connector.u_axi_tmr_voter_ds.u_axi_tmr_voter_ds_1m3s_inst1.genblk11[38].u_wdata
top.u_connector.u_connector.u_axi_tmr_voter_ds.u_axi_tmr_voter_ds_1m3s_inst1.genblk11[39].u_wdata
top.u_connector.u_connector.u_axi_tmr_voter_ds.u_axi_tmr_voter_ds_1m3s_inst1.genblk11[40].u_wdata
top.u_connector.u_connector.u_axi_tmr_voter_ds.u_axi_tmr_voter_ds_1m3s_inst1.genblk11[41].u_wdata
top.u_connector.u_connector.u_axi_tmr_voter_ds.u_axi_tmr_voter_ds_1m3s_inst1.genblk11[42].u_wdata
top.u_connector.u_connector.u_axi_tmr_voter_ds.u_axi_tmr_voter_ds_1m3s_inst1.genblk11[43].u_wdata
top.u_connector.u_connector.u_axi_tmr_voter_ds.u_axi_tmr_voter_ds_1m3s_inst1.genblk11[44].u_wdata
top.u_connector.u_connector.u_axi_tmr_voter_ds.u_axi_tmr_voter_ds_1m3s_inst1.genblk11[45].u_wdata
top.u_connector.u_connector.u_axi_tmr_voter_ds.u_axi_tmr_voter_ds_1m3s_inst1.genblk11[46].u_wdata
top.u_connector.u_connector.u_axi_tmr_voter_ds.u_axi_tmr_voter_ds_1m3s_inst1.genblk11[47].u_wdata
top.u_connector.u_connector.u_axi_tmr_voter_ds.u_axi_tmr_voter_ds_1m3s_inst1.genblk11[48].u_wdata
top.u_connector.u_connector.u_axi_tmr_voter_ds.u_axi_tmr_voter_ds_1m3s_inst1.genblk11[49].u_wdata
top.u_connector.u_connector.u_axi_tmr_voter_ds.u_axi_tmr_voter_ds_1m3s_inst1.genblk11[50].u_wdata
top.u_connector.u_connector.u_axi_tmr_voter_ds.u_axi_tmr_voter_ds_1m3s_inst1.genblk11[51].u_wdata
top.u_connector.u_connector.u_axi_tmr_voter_ds.u_axi_tmr_voter_ds_1m3s_inst1.genblk11[52].u_wdata
top.u_connector.u_connector.u_axi_tmr_voter_ds.u_axi_tmr_voter_ds_1m3s_inst1.genblk11[53].u_wdata
top.u_connector.u_connector.u_axi_tmr_voter_ds.u_axi_tmr_voter_ds_1m3s_inst1.genblk11[54].u_wdata
top.u_connector.u_connector.u_axi_tmr_voter_ds.u_axi_tmr_voter_ds_1m3s_inst1.genblk11[55].u_wdata
top.u_connector.u_connector.u_axi_tmr_voter_ds.u_axi_tmr_voter_ds_1m3s_inst1.genblk11[56].u_wdata
top.u_connector.u_connector.u_axi_tmr_voter_ds.u_axi_tmr_voter_ds_1m3s_inst1.genblk11[57].u_wdata
top.u_connector.u_connector.u_axi_tmr_voter_ds.u_axi_tmr_voter_ds_1m3s_inst1.genblk11[58].u_wdata
top.u_connector.u_connector.u_axi_tmr_voter_ds.u_axi_tmr_voter_ds_1m3s_inst1.genblk11[59].u_wdata
top.u_connector.u_connector.u_axi_tmr_voter_ds.u_axi_tmr_voter_ds_1m3s_inst1.genblk11[60].u_wdata
top.u_connector.u_connector.u_axi_tmr_voter_ds.u_axi_tmr_voter_ds_1m3s_inst1.genblk11[61].u_wdata
top.u_connector.u_connector.u_axi_tmr_voter_ds.u_axi_tmr_voter_ds_1m3s_inst1.genblk11[62].u_wdata
top.u_connector.u_connector.u_axi_tmr_voter_ds.u_axi_tmr_voter_ds_1m3s_inst1.genblk11[63].u_wdata
top.u_connector.u_connector.u_axi_tmr_voter_ds.u_axi_tmr_voter_ds_1m3s_inst1.genblk12[0].u_wstrb
top.u_connector.u_connector.u_axi_tmr_voter_ds.u_axi_tmr_voter_ds_1m3s_inst1.genblk12[1].u_wstrb
top.u_connector.u_connector.u_axi_tmr_voter_ds.u_axi_tmr_voter_ds_1m3s_inst1.genblk12[2].u_wstrb
top.u_connector.u_connector.u_axi_tmr_voter_ds.u_axi_tmr_voter_ds_1m3s_inst1.genblk12[3].u_wstrb
top.u_connector.u_connector.u_axi_tmr_voter_ds.u_axi_tmr_voter_ds_1m3s_inst1.genblk12[4].u_wstrb
top.u_connector.u_connector.u_axi_tmr_voter_ds.u_axi_tmr_voter_ds_1m3s_inst1.genblk12[5].u_wstrb
top.u_connector.u_connector.u_axi_tmr_voter_ds.u_axi_tmr_voter_ds_1m3s_inst1.genblk12[6].u_wstrb
top.u_connector.u_connector.u_axi_tmr_voter_ds.u_axi_tmr_voter_ds_1m3s_inst1.genblk12[7].u_wstrb
top.u_connector.u_connector.u_axi_tmr_voter_ds.u_axi_tmr_voter_ds_1m3s_inst1.genblk13[0].u_wuser
top.u_connector.u_connector.u_axi_tmr_voter_ds.u_axi_tmr_voter_ds_1m3s_inst1.genblk14[0].u_arid
top.u_connector.u_connector.u_axi_tmr_voter_ds.u_axi_tmr_voter_ds_1m3s_inst1.genblk14[1].u_arid
top.u_connector.u_connector.u_axi_tmr_voter_ds.u_axi_tmr_voter_ds_1m3s_inst1.genblk14[2].u_arid
top.u_connector.u_connector.u_axi_tmr_voter_ds.u_axi_tmr_voter_ds_1m3s_inst1.genblk14[3].u_arid
top.u_connector.u_connector.u_axi_tmr_voter_ds.u_axi_tmr_voter_ds_1m3s_inst1.genblk14[4].u_arid
top.u_connector.u_connector.u_axi_tmr_voter_ds.u_axi_tmr_voter_ds_1m3s_inst1.genblk14[5].u_arid
top.u_connector.u_connector.u_axi_tmr_voter_ds.u_axi_tmr_voter_ds_1m3s_inst1.genblk14[6].u_arid
top.u_connector.u_connector.u_axi_tmr_voter_ds.u_axi_tmr_voter_ds_1m3s_inst1.genblk14[7].u_arid
top.u_connector.u_connector.u_axi_tmr_voter_ds.u_axi_tmr_voter_ds_1m3s_inst1.genblk14[8].u_arid
top.u_connector.u_connector.u_axi_tmr_voter_ds.u_axi_tmr_voter_ds_1m3s_inst1.genblk14[9].u_arid
top.u_connector.u_connector.u_axi_tmr_voter_ds.u_axi_tmr_voter_ds_1m3s_inst1.genblk15[0].u_araddr
top.u_connector.u_connector.u_axi_tmr_voter_ds.u_axi_tmr_voter_ds_1m3s_inst1.genblk15[1].u_araddr
top.u_connector.u_connector.u_axi_tmr_voter_ds.u_axi_tmr_voter_ds_1m3s_inst1.genblk15[2].u_araddr
top.u_connector.u_connector.u_axi_tmr_voter_ds.u_axi_tmr_voter_ds_1m3s_inst1.genblk15[3].u_araddr
top.u_connector.u_connector.u_axi_tmr_voter_ds.u_axi_tmr_voter_ds_1m3s_inst1.genblk15[4].u_araddr
top.u_connector.u_connector.u_axi_tmr_voter_ds.u_axi_tmr_voter_ds_1m3s_inst1.genblk15[5].u_araddr
top.u_connector.u_connector.u_axi_tmr_voter_ds.u_axi_tmr_voter_ds_1m3s_inst1.genblk15[6].u_araddr
top.u_connector.u_connector.u_axi_tmr_voter_ds.u_axi_tmr_voter_ds_1m3s_inst1.genblk15[7].u_araddr
top.u_connector.u_connector.u_axi_tmr_voter_ds.u_axi_tmr_voter_ds_1m3s_inst1.genblk15[8].u_araddr
top.u_connector.u_connector.u_axi_tmr_voter_ds.u_axi_tmr_voter_ds_1m3s_inst1.genblk15[9].u_araddr
top.u_connector.u_connector.u_axi_tmr_voter_ds.u_axi_tmr_voter_ds_1m3s_inst1.genblk15[10].u_araddr
top.u_connector.u_connector.u_axi_tmr_voter_ds.u_axi_tmr_voter_ds_1m3s_inst1.genblk15[11].u_araddr
top.u_connector.u_connector.u_axi_tmr_voter_ds.u_axi_tmr_voter_ds_1m3s_inst1.genblk15[12].u_araddr
top.u_connector.u_connector.u_axi_tmr_voter_ds.u_axi_tmr_voter_ds_1m3s_inst1.genblk15[13].u_araddr
top.u_connector.u_connector.u_axi_tmr_voter_ds.u_axi_tmr_voter_ds_1m3s_inst1.genblk15[14].u_araddr
top.u_connector.u_connector.u_axi_tmr_voter_ds.u_axi_tmr_voter_ds_1m3s_inst1.genblk15[15].u_araddr
top.u_connector.u_connector.u_axi_tmr_voter_ds.u_axi_tmr_voter_ds_1m3s_inst1.genblk15[16].u_araddr
top.u_connector.u_connector.u_axi_tmr_voter_ds.u_axi_tmr_voter_ds_1m3s_inst1.genblk15[17].u_araddr
top.u_connector.u_connector.u_axi_tmr_voter_ds.u_axi_tmr_voter_ds_1m3s_inst1.genblk15[18].u_araddr
top.u_connector.u_connector.u_axi_tmr_voter_ds.u_axi_tmr_voter_ds_1m3s_inst1.genblk15[19].u_araddr
top.u_connector.u_connector.u_axi_tmr_voter_ds.u_axi_tmr_voter_ds_1m3s_inst1.genblk15[20].u_araddr
top.u_connector.u_connector.u_axi_tmr_voter_ds.u_axi_tmr_voter_ds_1m3s_inst1.genblk15[21].u_araddr
top.u_connector.u_connector.u_axi_tmr_voter_ds.u_axi_tmr_voter_ds_1m3s_inst1.genblk15[22].u_araddr
top.u_connector.u_connector.u_axi_tmr_voter_ds.u_axi_tmr_voter_ds_1m3s_inst1.genblk15[23].u_araddr
top.u_connector.u_connector.u_axi_tmr_voter_ds.u_axi_tmr_voter_ds_1m3s_inst1.genblk15[24].u_araddr
top.u_connector.u_connector.u_axi_tmr_voter_ds.u_axi_tmr_voter_ds_1m3s_inst1.genblk15[25].u_araddr
top.u_connector.u_connector.u_axi_tmr_voter_ds.u_axi_tmr_voter_ds_1m3s_inst1.genblk15[26].u_araddr
top.u_connector.u_connector.u_axi_tmr_voter_ds.u_axi_tmr_voter_ds_1m3s_inst1.genblk15[27].u_araddr
top.u_connector.u_connector.u_axi_tmr_voter_ds.u_axi_tmr_voter_ds_1m3s_inst1.genblk15[28].u_araddr
top.u_connector.u_connector.u_axi_tmr_voter_ds.u_axi_tmr_voter_ds_1m3s_inst1.genblk15[29].u_araddr
top.u_connector.u_connector.u_axi_tmr_voter_ds.u_axi_tmr_voter_ds_1m3s_inst1.genblk15[30].u_araddr
top.u_connector.u_connector.u_axi_tmr_voter_ds.u_axi_tmr_voter_ds_1m3s_inst1.genblk15[31].u_araddr
top.u_connector.u_connector.u_axi_tmr_voter_ds.u_axi_tmr_voter_ds_1m3s_inst1.genblk16[0].u_arlen
top.u_connector.u_connector.u_axi_tmr_voter_ds.u_axi_tmr_voter_ds_1m3s_inst1.genblk16[1].u_arlen
top.u_connector.u_connector.u_axi_tmr_voter_ds.u_axi_tmr_voter_ds_1m3s_inst1.genblk16[2].u_arlen
top.u_connector.u_connector.u_axi_tmr_voter_ds.u_axi_tmr_voter_ds_1m3s_inst1.genblk16[3].u_arlen
top.u_connector.u_connector.u_axi_tmr_voter_ds.u_axi_tmr_voter_ds_1m3s_inst1.genblk16[4].u_arlen
top.u_connector.u_connector.u_axi_tmr_voter_ds.u_axi_tmr_voter_ds_1m3s_inst1.genblk16[5].u_arlen
top.u_connector.u_connector.u_axi_tmr_voter_ds.u_axi_tmr_voter_ds_1m3s_inst1.genblk16[6].u_arlen
top.u_connector.u_connector.u_axi_tmr_voter_ds.u_axi_tmr_voter_ds_1m3s_inst1.genblk16[7].u_arlen
top.u_connector.u_connector.u_axi_tmr_voter_ds.u_axi_tmr_voter_ds_1m3s_inst1.genblk17[0].u_arsize
top.u_connector.u_connector.u_axi_tmr_voter_ds.u_axi_tmr_voter_ds_1m3s_inst1.genblk17[1].u_arsize
top.u_connector.u_connector.u_axi_tmr_voter_ds.u_axi_tmr_voter_ds_1m3s_inst1.genblk17[2].u_arsize
top.u_connector.u_connector.u_axi_tmr_voter_ds.u_axi_tmr_voter_ds_1m3s_inst1.genblk18[0].u_arburst
top.u_connector.u_connector.u_axi_tmr_voter_ds.u_axi_tmr_voter_ds_1m3s_inst1.genblk18[1].u_arburst
top.u_connector.u_connector.u_axi_tmr_voter_ds.u_axi_tmr_voter_ds_1m3s_inst1.genblk19[0].u_arcache
top.u_connector.u_connector.u_axi_tmr_voter_ds.u_axi_tmr_voter_ds_1m3s_inst1.genblk19[1].u_arcache
top.u_connector.u_connector.u_axi_tmr_voter_ds.u_axi_tmr_voter_ds_1m3s_inst1.genblk19[2].u_arcache
top.u_connector.u_connector.u_axi_tmr_voter_ds.u_axi_tmr_voter_ds_1m3s_inst1.genblk19[3].u_arcache
top.u_connector.u_connector.u_axi_tmr_voter_ds.u_axi_tmr_voter_ds_1m3s_inst1.genblk20[0].u_arprot
top.u_connector.u_connector.u_axi_tmr_voter_ds.u_axi_tmr_voter_ds_1m3s_inst1.genblk20[1].u_arprot
top.u_connector.u_connector.u_axi_tmr_voter_ds.u_axi_tmr_voter_ds_1m3s_inst1.genblk20[2].u_arprot
top.u_connector.u_connector.u_axi_tmr_voter_ds.u_axi_tmr_voter_ds_1m3s_inst1.genblk21[0].u_arqos
top.u_connector.u_connector.u_axi_tmr_voter_ds.u_axi_tmr_voter_ds_1m3s_inst1.genblk21[1].u_arqos
top.u_connector.u_connector.u_axi_tmr_voter_ds.u_axi_tmr_voter_ds_1m3s_inst1.genblk21[2].u_arqos
top.u_connector.u_connector.u_axi_tmr_voter_ds.u_axi_tmr_voter_ds_1m3s_inst1.genblk21[3].u_arqos
top.u_connector.u_connector.u_axi_tmr_voter_ds.u_axi_tmr_voter_ds_1m3s_inst1.genblk22[0].u_arregion
top.u_connector.u_connector.u_axi_tmr_voter_ds.u_axi_tmr_voter_ds_1m3s_inst1.genblk22[1].u_arregion
top.u_connector.u_connector.u_axi_tmr_voter_ds.u_axi_tmr_voter_ds_1m3s_inst1.genblk22[2].u_arregion
top.u_connector.u_connector.u_axi_tmr_voter_ds.u_axi_tmr_voter_ds_1m3s_inst1.genblk22[3].u_arregion
top.u_connector.u_connector.u_axi_tmr_voter_ds.u_axi_tmr_voter_ds_1m3s_inst1.genblk23[0].u_aruser
top.u_connector.u_connector.u_axi_tmr_voter_ds.u_axi_tmr_voter_ds_1m3s_inst2
top.u_connector.u_connector.u_axi_tmr_voter_ds.u_axi_tmr_voter_ds_1m3s_inst2.u_awlock
top.u_connector.u_connector.u_axi_tmr_voter_ds.u_axi_tmr_voter_ds_1m3s_inst2.u_awvalid
top.u_connector.u_connector.u_axi_tmr_voter_ds.u_axi_tmr_voter_ds_1m3s_inst2.u_wlast
top.u_connector.u_connector.u_axi_tmr_voter_ds.u_axi_tmr_voter_ds_1m3s_inst2.u_wvalid
top.u_connector.u_connector.u_axi_tmr_voter_ds.u_axi_tmr_voter_ds_1m3s_inst2.u_bready
top.u_connector.u_connector.u_axi_tmr_voter_ds.u_axi_tmr_voter_ds_1m3s_inst2.u_arlock
top.u_connector.u_connector.u_axi_tmr_voter_ds.u_axi_tmr_voter_ds_1m3s_inst2.u_arvalid
top.u_connector.u_connector.u_axi_tmr_voter_ds.u_axi_tmr_voter_ds_1m3s_inst2.u_rready
top.u_connector.u_connector.u_axi_tmr_voter_ds.u_axi_tmr_voter_ds_1m3s_inst2.genblk1[0].u_awid
top.u_connector.u_connector.u_axi_tmr_voter_ds.u_axi_tmr_voter_ds_1m3s_inst2.genblk1[1].u_awid
top.u_connector.u_connector.u_axi_tmr_voter_ds.u_axi_tmr_voter_ds_1m3s_inst2.genblk1[2].u_awid
top.u_connector.u_connector.u_axi_tmr_voter_ds.u_axi_tmr_voter_ds_1m3s_inst2.genblk1[3].u_awid
top.u_connector.u_connector.u_axi_tmr_voter_ds.u_axi_tmr_voter_ds_1m3s_inst2.genblk1[4].u_awid
top.u_connector.u_connector.u_axi_tmr_voter_ds.u_axi_tmr_voter_ds_1m3s_inst2.genblk1[5].u_awid
top.u_connector.u_connector.u_axi_tmr_voter_ds.u_axi_tmr_voter_ds_1m3s_inst2.genblk1[6].u_awid
top.u_connector.u_connector.u_axi_tmr_voter_ds.u_axi_tmr_voter_ds_1m3s_inst2.genblk1[7].u_awid
top.u_connector.u_connector.u_axi_tmr_voter_ds.u_axi_tmr_voter_ds_1m3s_inst2.genblk1[8].u_awid
top.u_connector.u_connector.u_axi_tmr_voter_ds.u_axi_tmr_voter_ds_1m3s_inst2.genblk1[9].u_awid
top.u_connector.u_connector.u_axi_tmr_voter_ds.u_axi_tmr_voter_ds_1m3s_inst2.genblk2[0].u_awaddr
top.u_connector.u_connector.u_axi_tmr_voter_ds.u_axi_tmr_voter_ds_1m3s_inst2.genblk2[1].u_awaddr
top.u_connector.u_connector.u_axi_tmr_voter_ds.u_axi_tmr_voter_ds_1m3s_inst2.genblk2[2].u_awaddr
top.u_connector.u_connector.u_axi_tmr_voter_ds.u_axi_tmr_voter_ds_1m3s_inst2.genblk2[3].u_awaddr
top.u_connector.u_connector.u_axi_tmr_voter_ds.u_axi_tmr_voter_ds_1m3s_inst2.genblk2[4].u_awaddr
top.u_connector.u_connector.u_axi_tmr_voter_ds.u_axi_tmr_voter_ds_1m3s_inst2.genblk2[5].u_awaddr
top.u_connector.u_connector.u_axi_tmr_voter_ds.u_axi_tmr_voter_ds_1m3s_inst2.genblk2[6].u_awaddr
top.u_connector.u_connector.u_axi_tmr_voter_ds.u_axi_tmr_voter_ds_1m3s_inst2.genblk2[7].u_awaddr
top.u_connector.u_connector.u_axi_tmr_voter_ds.u_axi_tmr_voter_ds_1m3s_inst2.genblk2[8].u_awaddr
top.u_connector.u_connector.u_axi_tmr_voter_ds.u_axi_tmr_voter_ds_1m3s_inst2.genblk2[9].u_awaddr
top.u_connector.u_connector.u_axi_tmr_voter_ds.u_axi_tmr_voter_ds_1m3s_inst2.genblk2[10].u_awaddr
top.u_connector.u_connector.u_axi_tmr_voter_ds.u_axi_tmr_voter_ds_1m3s_inst2.genblk2[11].u_awaddr
top.u_connector.u_connector.u_axi_tmr_voter_ds.u_axi_tmr_voter_ds_1m3s_inst2.genblk2[12].u_awaddr
top.u_connector.u_connector.u_axi_tmr_voter_ds.u_axi_tmr_voter_ds_1m3s_inst2.genblk2[13].u_awaddr
top.u_connector.u_connector.u_axi_tmr_voter_ds.u_axi_tmr_voter_ds_1m3s_inst2.genblk2[14].u_awaddr
top.u_connector.u_connector.u_axi_tmr_voter_ds.u_axi_tmr_voter_ds_1m3s_inst2.genblk2[15].u_awaddr
top.u_connector.u_connector.u_axi_tmr_voter_ds.u_axi_tmr_voter_ds_1m3s_inst2.genblk2[16].u_awaddr
top.u_connector.u_connector.u_axi_tmr_voter_ds.u_axi_tmr_voter_ds_1m3s_inst2.genblk2[17].u_awaddr
top.u_connector.u_connector.u_axi_tmr_voter_ds.u_axi_tmr_voter_ds_1m3s_inst2.genblk2[18].u_awaddr
top.u_connector.u_connector.u_axi_tmr_voter_ds.u_axi_tmr_voter_ds_1m3s_inst2.genblk2[19].u_awaddr
top.u_connector.u_connector.u_axi_tmr_voter_ds.u_axi_tmr_voter_ds_1m3s_inst2.genblk2[20].u_awaddr
top.u_connector.u_connector.u_axi_tmr_voter_ds.u_axi_tmr_voter_ds_1m3s_inst2.genblk2[21].u_awaddr
top.u_connector.u_connector.u_axi_tmr_voter_ds.u_axi_tmr_voter_ds_1m3s_inst2.genblk2[22].u_awaddr
top.u_connector.u_connector.u_axi_tmr_voter_ds.u_axi_tmr_voter_ds_1m3s_inst2.genblk2[23].u_awaddr
top.u_connector.u_connector.u_axi_tmr_voter_ds.u_axi_tmr_voter_ds_1m3s_inst2.genblk2[24].u_awaddr
top.u_connector.u_connector.u_axi_tmr_voter_ds.u_axi_tmr_voter_ds_1m3s_inst2.genblk2[25].u_awaddr
top.u_connector.u_connector.u_axi_tmr_voter_ds.u_axi_tmr_voter_ds_1m3s_inst2.genblk2[26].u_awaddr
top.u_connector.u_connector.u_axi_tmr_voter_ds.u_axi_tmr_voter_ds_1m3s_inst2.genblk2[27].u_awaddr
top.u_connector.u_connector.u_axi_tmr_voter_ds.u_axi_tmr_voter_ds_1m3s_inst2.genblk2[28].u_awaddr
top.u_connector.u_connector.u_axi_tmr_voter_ds.u_axi_tmr_voter_ds_1m3s_inst2.genblk2[29].u_awaddr
top.u_connector.u_connector.u_axi_tmr_voter_ds.u_axi_tmr_voter_ds_1m3s_inst2.genblk2[30].u_awaddr
top.u_connector.u_connector.u_axi_tmr_voter_ds.u_axi_tmr_voter_ds_1m3s_inst2.genblk2[31].u_awaddr
top.u_connector.u_connector.u_axi_tmr_voter_ds.u_axi_tmr_voter_ds_1m3s_inst2.genblk3[0].u_awlen
top.u_connector.u_connector.u_axi_tmr_voter_ds.u_axi_tmr_voter_ds_1m3s_inst2.genblk3[1].u_awlen
top.u_connector.u_connector.u_axi_tmr_voter_ds.u_axi_tmr_voter_ds_1m3s_inst2.genblk3[2].u_awlen
top.u_connector.u_connector.u_axi_tmr_voter_ds.u_axi_tmr_voter_ds_1m3s_inst2.genblk3[3].u_awlen
top.u_connector.u_connector.u_axi_tmr_voter_ds.u_axi_tmr_voter_ds_1m3s_inst2.genblk3[4].u_awlen
top.u_connector.u_connector.u_axi_tmr_voter_ds.u_axi_tmr_voter_ds_1m3s_inst2.genblk3[5].u_awlen
top.u_connector.u_connector.u_axi_tmr_voter_ds.u_axi_tmr_voter_ds_1m3s_inst2.genblk3[6].u_awlen
top.u_connector.u_connector.u_axi_tmr_voter_ds.u_axi_tmr_voter_ds_1m3s_inst2.genblk3[7].u_awlen
top.u_connector.u_connector.u_axi_tmr_voter_ds.u_axi_tmr_voter_ds_1m3s_inst2.genblk4[0].u_awsize
top.u_connector.u_connector.u_axi_tmr_voter_ds.u_axi_tmr_voter_ds_1m3s_inst2.genblk4[1].u_awsize
top.u_connector.u_connector.u_axi_tmr_voter_ds.u_axi_tmr_voter_ds_1m3s_inst2.genblk4[2].u_awsize
top.u_connector.u_connector.u_axi_tmr_voter_ds.u_axi_tmr_voter_ds_1m3s_inst2.genblk5[0].u_awburst
top.u_connector.u_connector.u_axi_tmr_voter_ds.u_axi_tmr_voter_ds_1m3s_inst2.genblk5[1].u_awburst
top.u_connector.u_connector.u_axi_tmr_voter_ds.u_axi_tmr_voter_ds_1m3s_inst2.genblk6[0].u_awcache
top.u_connector.u_connector.u_axi_tmr_voter_ds.u_axi_tmr_voter_ds_1m3s_inst2.genblk6[1].u_awcache
top.u_connector.u_connector.u_axi_tmr_voter_ds.u_axi_tmr_voter_ds_1m3s_inst2.genblk6[2].u_awcache
top.u_connector.u_connector.u_axi_tmr_voter_ds.u_axi_tmr_voter_ds_1m3s_inst2.genblk6[3].u_awcache
top.u_connector.u_connector.u_axi_tmr_voter_ds.u_axi_tmr_voter_ds_1m3s_inst2.genblk7[0].u_awprot
top.u_connector.u_connector.u_axi_tmr_voter_ds.u_axi_tmr_voter_ds_1m3s_inst2.genblk7[1].u_awprot
top.u_connector.u_connector.u_axi_tmr_voter_ds.u_axi_tmr_voter_ds_1m3s_inst2.genblk7[2].u_awprot
top.u_connector.u_connector.u_axi_tmr_voter_ds.u_axi_tmr_voter_ds_1m3s_inst2.genblk8[0].u_awqos
top.u_connector.u_connector.u_axi_tmr_voter_ds.u_axi_tmr_voter_ds_1m3s_inst2.genblk8[1].u_awqos
top.u_connector.u_connector.u_axi_tmr_voter_ds.u_axi_tmr_voter_ds_1m3s_inst2.genblk8[2].u_awqos
top.u_connector.u_connector.u_axi_tmr_voter_ds.u_axi_tmr_voter_ds_1m3s_inst2.genblk8[3].u_awqos
top.u_connector.u_connector.u_axi_tmr_voter_ds.u_axi_tmr_voter_ds_1m3s_inst2.genblk9[0].u_awregion
top.u_connector.u_connector.u_axi_tmr_voter_ds.u_axi_tmr_voter_ds_1m3s_inst2.genblk9[1].u_awregion
top.u_connector.u_connector.u_axi_tmr_voter_ds.u_axi_tmr_voter_ds_1m3s_inst2.genblk9[2].u_awregion
top.u_connector.u_connector.u_axi_tmr_voter_ds.u_axi_tmr_voter_ds_1m3s_inst2.genblk9[3].u_awregion
top.u_connector.u_connector.u_axi_tmr_voter_ds.u_axi_tmr_voter_ds_1m3s_inst2.genblk10[0].u_awuser
top.u_connector.u_connector.u_axi_tmr_voter_ds.u_axi_tmr_voter_ds_1m3s_inst2.genblk11[0].u_wdata
top.u_connector.u_connector.u_axi_tmr_voter_ds.u_axi_tmr_voter_ds_1m3s_inst2.genblk11[1].u_wdata
top.u_connector.u_connector.u_axi_tmr_voter_ds.u_axi_tmr_voter_ds_1m3s_inst2.genblk11[2].u_wdata
top.u_connector.u_connector.u_axi_tmr_voter_ds.u_axi_tmr_voter_ds_1m3s_inst2.genblk11[3].u_wdata
top.u_connector.u_connector.u_axi_tmr_voter_ds.u_axi_tmr_voter_ds_1m3s_inst2.genblk11[4].u_wdata
top.u_connector.u_connector.u_axi_tmr_voter_ds.u_axi_tmr_voter_ds_1m3s_inst2.genblk11[5].u_wdata
top.u_connector.u_connector.u_axi_tmr_voter_ds.u_axi_tmr_voter_ds_1m3s_inst2.genblk11[6].u_wdata
top.u_connector.u_connector.u_axi_tmr_voter_ds.u_axi_tmr_voter_ds_1m3s_inst2.genblk11[7].u_wdata
top.u_connector.u_connector.u_axi_tmr_voter_ds.u_axi_tmr_voter_ds_1m3s_inst2.genblk11[8].u_wdata
top.u_connector.u_connector.u_axi_tmr_voter_ds.u_axi_tmr_voter_ds_1m3s_inst2.genblk11[9].u_wdata
top.u_connector.u_connector.u_axi_tmr_voter_ds.u_axi_tmr_voter_ds_1m3s_inst2.genblk11[10].u_wdata
top.u_connector.u_connector.u_axi_tmr_voter_ds.u_axi_tmr_voter_ds_1m3s_inst2.genblk11[11].u_wdata
top.u_connector.u_connector.u_axi_tmr_voter_ds.u_axi_tmr_voter_ds_1m3s_inst2.genblk11[12].u_wdata
top.u_connector.u_connector.u_axi_tmr_voter_ds.u_axi_tmr_voter_ds_1m3s_inst2.genblk11[13].u_wdata
top.u_connector.u_connector.u_axi_tmr_voter_ds.u_axi_tmr_voter_ds_1m3s_inst2.genblk11[14].u_wdata
top.u_connector.u_connector.u_axi_tmr_voter_ds.u_axi_tmr_voter_ds_1m3s_inst2.genblk11[15].u_wdata
top.u_connector.u_connector.u_axi_tmr_voter_ds.u_axi_tmr_voter_ds_1m3s_inst2.genblk11[16].u_wdata
top.u_connector.u_connector.u_axi_tmr_voter_ds.u_axi_tmr_voter_ds_1m3s_inst2.genblk11[17].u_wdata
top.u_connector.u_connector.u_axi_tmr_voter_ds.u_axi_tmr_voter_ds_1m3s_inst2.genblk11[18].u_wdata
top.u_connector.u_connector.u_axi_tmr_voter_ds.u_axi_tmr_voter_ds_1m3s_inst2.genblk11[19].u_wdata
top.u_connector.u_connector.u_axi_tmr_voter_ds.u_axi_tmr_voter_ds_1m3s_inst2.genblk11[20].u_wdata
top.u_connector.u_connector.u_axi_tmr_voter_ds.u_axi_tmr_voter_ds_1m3s_inst2.genblk11[21].u_wdata
top.u_connector.u_connector.u_axi_tmr_voter_ds.u_axi_tmr_voter_ds_1m3s_inst2.genblk11[22].u_wdata
top.u_connector.u_connector.u_axi_tmr_voter_ds.u_axi_tmr_voter_ds_1m3s_inst2.genblk11[23].u_wdata
top.u_connector.u_connector.u_axi_tmr_voter_ds.u_axi_tmr_voter_ds_1m3s_inst2.genblk11[24].u_wdata
top.u_connector.u_connector.u_axi_tmr_voter_ds.u_axi_tmr_voter_ds_1m3s_inst2.genblk11[25].u_wdata
top.u_connector.u_connector.u_axi_tmr_voter_ds.u_axi_tmr_voter_ds_1m3s_inst2.genblk11[26].u_wdata
top.u_connector.u_connector.u_axi_tmr_voter_ds.u_axi_tmr_voter_ds_1m3s_inst2.genblk11[27].u_wdata
top.u_connector.u_connector.u_axi_tmr_voter_ds.u_axi_tmr_voter_ds_1m3s_inst2.genblk11[28].u_wdata
top.u_connector.u_connector.u_axi_tmr_voter_ds.u_axi_tmr_voter_ds_1m3s_inst2.genblk11[29].u_wdata
top.u_connector.u_connector.u_axi_tmr_voter_ds.u_axi_tmr_voter_ds_1m3s_inst2.genblk11[30].u_wdata
top.u_connector.u_connector.u_axi_tmr_voter_ds.u_axi_tmr_voter_ds_1m3s_inst2.genblk11[31].u_wdata
top.u_connector.u_connector.u_axi_tmr_voter_ds.u_axi_tmr_voter_ds_1m3s_inst2.genblk11[32].u_wdata
top.u_connector.u_connector.u_axi_tmr_voter_ds.u_axi_tmr_voter_ds_1m3s_inst2.genblk11[33].u_wdata
