top.u_connector.u_connector.u_axi_tmr_voter_us.axi_tmr_voter_us_3m1s_inst1.s00_axi_rdata[0]
top.u_connector.u_connector.u_axi_tmr_voter_us.axi_tmr_voter_us_3m1s_inst1.s00_axi_rdata[1]
top.u_connector.u_connector.u_axi_tmr_voter_us.axi_tmr_voter_us_3m1s_inst1.s00_axi_rdata[2]
top.u_connector.u_connector.u_axi_tmr_voter_us.axi_tmr_voter_us_3m1s_inst1.s00_axi_rdata[3]
top.u_connector.u_connector.u_axi_tmr_voter_us.axi_tmr_voter_us_3m1s_inst1.s00_axi_rdata[4]
top.u_connector.u_connector.u_axi_tmr_voter_us.axi_tmr_voter_us_3m1s_inst1.s00_axi_rdata[5]
top.u_connector.u_connector.u_axi_tmr_voter_us.axi_tmr_voter_us_3m1s_inst1.s00_axi_rdata[6]
top.u_connector.u_connector.u_axi_tmr_voter_us.axi_tmr_voter_us_3m1s_inst1.s00_axi_rdata[7]
top.u_connector.u_connector.u_axi_tmr_voter_us.axi_tmr_voter_us_3m1s_inst1.s00_axi_rdata[8]
top.u_connector.u_connector.u_axi_tmr_voter_us.axi_tmr_voter_us_3m1s_inst1.s00_axi_rdata[9]
top.u_connector.u_connector.u_axi_tmr_voter_us.axi_tmr_voter_us_3m1s_inst1.s00_axi_rdata[10]
top.u_connector.u_connector.u_axi_tmr_voter_us.axi_tmr_voter_us_3m1s_inst1.s00_axi_rdata[11]
top.u_connector.u_connector.u_axi_tmr_voter_us.axi_tmr_voter_us_3m1s_inst1.s00_axi_rdata[12]
top.u_connector.u_connector.u_axi_tmr_voter_us.axi_tmr_voter_us_3m1s_inst1.s00_axi_rdata[13]
top.u_connector.u_connector.u_axi_tmr_voter_us.axi_tmr_voter_us_3m1s_inst1.s00_axi_rdata[14]
top.u_connector.u_connector.u_axi_tmr_voter_us.axi_tmr_voter_us_3m1s_inst1.s00_axi_rdata[15]
top.u_connector.u_connector.u_axi_tmr_voter_us.axi_tmr_voter_us_3m1s_inst1.s00_axi_rdata[16]
top.u_connector.u_connector.u_axi_tmr_voter_us.axi_tmr_voter_us_3m1s_inst1.s00_axi_rdata[17]
top.u_connector.u_connector.u_axi_tmr_voter_us.axi_tmr_voter_us_3m1s_inst1.s00_axi_rdata[18]
top.u_connector.u_connector.u_axi_tmr_voter_us.axi_tmr_voter_us_3m1s_inst1.s00_axi_rdata[19]
top.u_connector.u_connector.u_axi_tmr_voter_us.axi_tmr_voter_us_3m1s_inst1.s00_axi_rdata[20]
top.u_connector.u_connector.u_axi_tmr_voter_us.axi_tmr_voter_us_3m1s_inst1.s00_axi_rdata[21]
top.u_connector.u_connector.u_axi_tmr_voter_us.axi_tmr_voter_us_3m1s_inst1.s00_axi_rdata[22]
top.u_connector.u_connector.u_axi_tmr_voter_us.axi_tmr_voter_us_3m1s_inst1.s00_axi_rdata[23]
top.u_connector.u_connector.u_axi_tmr_voter_us.axi_tmr_voter_us_3m1s_inst1.s00_axi_rdata[24]
top.u_connector.u_connector.u_axi_tmr_voter_us.axi_tmr_voter_us_3m1s_inst1.s00_axi_rdata[25]
top.u_connector.u_connector.u_axi_tmr_voter_us.axi_tmr_voter_us_3m1s_inst1.s00_axi_rdata[26]
top.u_connector.u_connector.u_axi_tmr_voter_us.axi_tmr_voter_us_3m1s_inst1.s00_axi_rdata[27]
top.u_connector.u_connector.u_axi_tmr_voter_us.axi_tmr_voter_us_3m1s_inst1.s00_axi_rdata[28]
top.u_connector.u_connector.u_axi_tmr_voter_us.axi_tmr_voter_us_3m1s_inst1.s00_axi_rdata[29]
top.u_connector.u_connector.u_axi_tmr_voter_us.axi_tmr_voter_us_3m1s_inst1.s00_axi_rdata[30]
top.u_connector.u_connector.u_axi_tmr_voter_us.axi_tmr_voter_us_3m1s_inst1.s00_axi_rdata[31]
top.u_connector.u_connector.u_axi_tmr_voter_us.axi_tmr_voter_us_3m1s_inst1.s00_axi_rdata[32]
top.u_connector.u_connector.u_axi_tmr_voter_us.axi_tmr_voter_us_3m1s_inst1.s00_axi_rdata[33]
top.u_connector.u_connector.u_axi_tmr_voter_us.axi_tmr_voter_us_3m1s_inst1.s00_axi_rdata[34]
top.u_connector.u_connector.u_axi_tmr_voter_us.axi_tmr_voter_us_3m1s_inst1.s00_axi_rdata[35]
top.u_connector.u_connector.u_axi_tmr_voter_us.axi_tmr_voter_us_3m1s_inst1.s00_axi_rdata[36]
top.u_connector.u_connector.u_axi_tmr_voter_us.axi_tmr_voter_us_3m1s_inst1.s00_axi_rdata[37]
top.u_connector.u_connector.u_axi_tmr_voter_us.axi_tmr_voter_us_3m1s_inst1.s00_axi_rdata[38]
top.u_connector.u_connector.u_axi_tmr_voter_us.axi_tmr_voter_us_3m1s_inst1.s00_axi_rdata[39]
top.u_connector.u_connector.u_axi_tmr_voter_us.axi_tmr_voter_us_3m1s_inst1.s00_axi_rdata[40]
top.u_connector.u_connector.u_axi_tmr_voter_us.axi_tmr_voter_us_3m1s_inst1.s00_axi_rdata[41]
top.u_connector.u_connector.u_axi_tmr_voter_us.axi_tmr_voter_us_3m1s_inst1.s00_axi_rdata[42]
top.u_connector.u_connector.u_axi_tmr_voter_us.axi_tmr_voter_us_3m1s_inst1.s00_axi_rdata[43]
top.u_connector.u_connector.u_axi_tmr_voter_us.axi_tmr_voter_us_3m1s_inst1.s00_axi_rdata[44]
top.u_connector.u_connector.u_axi_tmr_voter_us.axi_tmr_voter_us_3m1s_inst1.s00_axi_rdata[45]
top.u_connector.u_connector.u_axi_tmr_voter_us.axi_tmr_voter_us_3m1s_inst1.s00_axi_rdata[46]
top.u_connector.u_connector.u_axi_tmr_voter_us.axi_tmr_voter_us_3m1s_inst1.s00_axi_rdata[47]
top.u_connector.u_connector.u_axi_tmr_voter_us.axi_tmr_voter_us_3m1s_inst1.s00_axi_rdata[48]
top.u_connector.u_connector.u_axi_tmr_voter_us.axi_tmr_voter_us_3m1s_inst1.s00_axi_rdata[49]
top.u_connector.u_connector.u_axi_tmr_voter_us.axi_tmr_voter_us_3m1s_inst1.s00_axi_rdata[50]
top.u_connector.u_connector.u_axi_tmr_voter_us.axi_tmr_voter_us_3m1s_inst1.s00_axi_rdata[51]
top.u_connector.u_connector.u_axi_tmr_voter_us.axi_tmr_voter_us_3m1s_inst1.s00_axi_rdata[52]
top.u_connector.u_connector.u_axi_tmr_voter_us.axi_tmr_voter_us_3m1s_inst1.s00_axi_rdata[53]
top.u_connector.u_connector.u_axi_tmr_voter_us.axi_tmr_voter_us_3m1s_inst1.s00_axi_rdata[54]
top.u_connector.u_connector.u_axi_tmr_voter_us.axi_tmr_voter_us_3m1s_inst1.s00_axi_rdata[55]
top.u_connector.u_connector.u_axi_tmr_voter_us.axi_tmr_voter_us_3m1s_inst1.s00_axi_rdata[56]
top.u_connector.u_connector.u_axi_tmr_voter_us.axi_tmr_voter_us_3m1s_inst1.s00_axi_rdata[57]
top.u_connector.u_connector.u_axi_tmr_voter_us.axi_tmr_voter_us_3m1s_inst1.s00_axi_rdata[58]
top.u_connector.u_connector.u_axi_tmr_voter_us.axi_tmr_voter_us_3m1s_inst1.s00_axi_rdata[59]
top.u_connector.u_connector.u_axi_tmr_voter_us.axi_tmr_voter_us_3m1s_inst1.s00_axi_rdata[60]
top.u_connector.u_connector.u_axi_tmr_voter_us.axi_tmr_voter_us_3m1s_inst1.s00_axi_rdata[61]
top.u_connector.u_connector.u_axi_tmr_voter_us.axi_tmr_voter_us_3m1s_inst1.s00_axi_rdata[62]
top.u_connector.u_connector.u_axi_tmr_voter_us.axi_tmr_voter_us_3m1s_inst1.s00_axi_rdata[63]
top.u_connector.u_connector.u_axi_tmr_voter_us.axi_tmr_voter_us_3m1s_inst1.s00_axi_rresp[0]
top.u_connector.u_connector.u_axi_tmr_voter_us.axi_tmr_voter_us_3m1s_inst1.s00_axi_rresp[1]
top.u_connector.u_connector.u_axi_tmr_voter_us.axi_tmr_voter_us_3m1s_inst1.s00_axi_rlast
top.u_connector.u_connector.u_axi_tmr_voter_us.axi_tmr_voter_us_3m1s_inst1.s00_axi_ruser
top.u_connector.u_connector.u_axi_tmr_voter_us.axi_tmr_voter_us_3m1s_inst1.s00_axi_rvalid
top.u_connector.u_connector.u_axi_tmr_voter_us.axi_tmr_voter_us_3m1s_inst1.s00_axi_rready
top.u_connector.u_connector.u_axi_tmr_voter_us.axi_tmr_voter_us_3m1s_inst1.m00_axi_awid[0]
top.u_connector.u_connector.u_axi_tmr_voter_us.axi_tmr_voter_us_3m1s_inst1.m00_axi_awid[1]
top.u_connector.u_connector.u_axi_tmr_voter_us.axi_tmr_voter_us_3m1s_inst1.m00_axi_awid[2]
top.u_connector.u_connector.u_axi_tmr_voter_us.axi_tmr_voter_us_3m1s_inst1.m00_axi_awid[3]
top.u_connector.u_connector.u_axi_tmr_voter_us.axi_tmr_voter_us_3m1s_inst1.m00_axi_awid[4]
top.u_connector.u_connector.u_axi_tmr_voter_us.axi_tmr_voter_us_3m1s_inst1.m00_axi_awid[5]
top.u_connector.u_connector.u_axi_tmr_voter_us.axi_tmr_voter_us_3m1s_inst1.m00_axi_awid[6]
top.u_connector.u_connector.u_axi_tmr_voter_us.axi_tmr_voter_us_3m1s_inst1.m00_axi_awid[7]
top.u_connector.u_connector.u_axi_tmr_voter_us.axi_tmr_voter_us_3m1s_inst1.m00_axi_awaddr[0]
top.u_connector.u_connector.u_axi_tmr_voter_us.axi_tmr_voter_us_3m1s_inst1.m00_axi_awaddr[1]
top.u_connector.u_connector.u_axi_tmr_voter_us.axi_tmr_voter_us_3m1s_inst1.m00_axi_awaddr[2]
top.u_connector.u_connector.u_axi_tmr_voter_us.axi_tmr_voter_us_3m1s_inst1.m00_axi_awaddr[3]
top.u_connector.u_connector.u_axi_tmr_voter_us.axi_tmr_voter_us_3m1s_inst1.m00_axi_awaddr[4]
top.u_connector.u_connector.u_axi_tmr_voter_us.axi_tmr_voter_us_3m1s_inst1.m00_axi_awaddr[5]
top.u_connector.u_connector.u_axi_tmr_voter_us.axi_tmr_voter_us_3m1s_inst1.m00_axi_awaddr[6]
top.u_connector.u_connector.u_axi_tmr_voter_us.axi_tmr_voter_us_3m1s_inst1.m00_axi_awaddr[7]
top.u_connector.u_connector.u_axi_tmr_voter_us.axi_tmr_voter_us_3m1s_inst1.m00_axi_awaddr[8]
top.u_connector.u_connector.u_axi_tmr_voter_us.axi_tmr_voter_us_3m1s_inst1.m00_axi_awaddr[9]
top.u_connector.u_connector.u_axi_tmr_voter_us.axi_tmr_voter_us_3m1s_inst1.m00_axi_awaddr[10]
top.u_connector.u_connector.u_axi_tmr_voter_us.axi_tmr_voter_us_3m1s_inst1.m00_axi_awaddr[11]
top.u_connector.u_connector.u_axi_tmr_voter_us.axi_tmr_voter_us_3m1s_inst1.m00_axi_awaddr[12]
top.u_connector.u_connector.axi_crossbar_inst1.axi_crossbar_wr_inst.s_ifaces[0].reg_inst.m_axi_wdata[31]
top.u_connector.u_connector.axi_crossbar_inst1.axi_crossbar_wr_inst.s_ifaces[0].reg_inst.m_axi_wdata[32]
top.u_connector.u_connector.axi_crossbar_inst1.axi_crossbar_wr_inst.s_ifaces[0].reg_inst.m_axi_wdata[33]
top.u_connector.u_connector.axi_crossbar_inst1.axi_crossbar_wr_inst.s_ifaces[0].reg_inst.m_axi_wdata[34]
top.u_connector.u_connector.axi_crossbar_inst1.axi_crossbar_wr_inst.s_ifaces[0].reg_inst.m_axi_wdata[35]
top.u_connector.u_connector.axi_crossbar_inst1.axi_crossbar_wr_inst.s_ifaces[0].reg_inst.m_axi_wdata[36]
top.u_connector.u_connector.axi_crossbar_inst1.axi_crossbar_wr_inst.s_ifaces[0].reg_inst.m_axi_wdata[37]
top.u_connector.u_connector.axi_crossbar_inst1.axi_crossbar_wr_inst.s_ifaces[0].reg_inst.m_axi_wdata[38]
top.u_connector.u_connector.axi_crossbar_inst1.axi_crossbar_wr_inst.s_ifaces[0].reg_inst.m_axi_wdata[39]
top.u_connector.u_connector.axi_crossbar_inst1.axi_crossbar_wr_inst.s_ifaces[0].reg_inst.m_axi_wdata[40]
top.u_connector.u_connector.axi_crossbar_inst1.axi_crossbar_wr_inst.s_ifaces[0].reg_inst.m_axi_wdata[41]
top.u_connector.u_connector.axi_crossbar_inst1.axi_crossbar_wr_inst.s_ifaces[0].reg_inst.m_axi_wdata[42]
top.u_connector.u_connector.axi_crossbar_inst1.axi_crossbar_wr_inst.s_ifaces[0].reg_inst.m_axi_wdata[43]
top.u_connector.u_connector.axi_crossbar_inst1.axi_crossbar_wr_inst.s_ifaces[0].reg_inst.m_axi_wdata[44]
top.u_connector.u_connector.axi_crossbar_inst1.axi_crossbar_wr_inst.s_ifaces[0].reg_inst.m_axi_wdata[45]
top.u_connector.u_connector.axi_crossbar_inst1.axi_crossbar_wr_inst.s_ifaces[0].reg_inst.m_axi_wdata[46]
top.u_connector.u_connector.axi_crossbar_inst1.axi_crossbar_wr_inst.s_ifaces[0].reg_inst.m_axi_wdata[47]
top.u_connector.u_connector.axi_crossbar_inst1.axi_crossbar_wr_inst.s_ifaces[0].reg_inst.m_axi_wdata[48]
top.u_connector.u_connector.axi_crossbar_inst1.axi_crossbar_wr_inst.s_ifaces[0].reg_inst.m_axi_wdata[49]
top.u_connector.u_connector.axi_crossbar_inst1.axi_crossbar_wr_inst.s_ifaces[0].reg_inst.m_axi_wdata[50]
top.u_connector.u_connector.axi_crossbar_inst1.axi_crossbar_wr_inst.s_ifaces[0].reg_inst.m_axi_wdata[51]
top.u_connector.u_connector.axi_crossbar_inst1.axi_crossbar_wr_inst.s_ifaces[0].reg_inst.m_axi_wdata[52]
top.u_connector.u_connector.axi_crossbar_inst1.axi_crossbar_wr_inst.s_ifaces[0].reg_inst.m_axi_wdata[53]
top.u_connector.u_connector.axi_crossbar_inst1.axi_crossbar_wr_inst.s_ifaces[0].reg_inst.m_axi_wdata[54]
top.u_connector.u_connector.axi_crossbar_inst1.axi_crossbar_wr_inst.s_ifaces[0].reg_inst.m_axi_wdata[55]
top.u_connector.u_connector.axi_crossbar_inst1.axi_crossbar_wr_inst.s_ifaces[0].reg_inst.m_axi_wdata[56]
top.u_connector.u_connector.axi_crossbar_inst1.axi_crossbar_wr_inst.s_ifaces[0].reg_inst.m_axi_wdata[57]
top.u_connector.u_connector.axi_crossbar_inst1.axi_crossbar_wr_inst.s_ifaces[0].reg_inst.m_axi_wdata[58]
top.u_connector.u_connector.axi_crossbar_inst1.axi_crossbar_wr_inst.s_ifaces[0].reg_inst.m_axi_wdata[59]
top.u_connector.u_connector.axi_crossbar_inst1.axi_crossbar_wr_inst.s_ifaces[0].reg_inst.m_axi_wdata[60]
top.u_connector.u_connector.axi_crossbar_inst1.axi_crossbar_wr_inst.s_ifaces[0].reg_inst.m_axi_wdata[61]
top.u_connector.u_connector.axi_crossbar_inst1.axi_crossbar_wr_inst.s_ifaces[0].reg_inst.m_axi_wdata[62]
top.u_connector.u_connector.axi_crossbar_inst1.axi_crossbar_wr_inst.s_ifaces[0].reg_inst.m_axi_wdata[63]
top.u_connector.u_connector.axi_crossbar_inst1.axi_crossbar_wr_inst.s_ifaces[0].reg_inst.m_axi_wstrb[0]
top.u_connector.u_connector.axi_crossbar_inst1.axi_crossbar_wr_inst.s_ifaces[0].reg_inst.m_axi_wstrb[1]
top.u_connector.u_connector.axi_crossbar_inst1.axi_crossbar_wr_inst.s_ifaces[0].reg_inst.m_axi_wstrb[2]
top.u_connector.u_connector.axi_crossbar_inst1.axi_crossbar_wr_inst.s_ifaces[0].reg_inst.m_axi_wstrb[3]
top.u_connector.u_connector.axi_crossbar_inst1.axi_crossbar_wr_inst.s_ifaces[0].reg_inst.m_axi_wstrb[4]
top.u_connector.u_connector.axi_crossbar_inst1.axi_crossbar_wr_inst.s_ifaces[0].reg_inst.m_axi_wstrb[5]
top.u_connector.u_connector.axi_crossbar_inst1.axi_crossbar_wr_inst.s_ifaces[0].reg_inst.m_axi_wstrb[6]
top.u_connector.u_connector.axi_crossbar_inst1.axi_crossbar_wr_inst.s_ifaces[0].reg_inst.m_axi_wstrb[7]
top.u_connector.u_connector.axi_crossbar_inst1.axi_crossbar_wr_inst.s_ifaces[0].reg_inst.m_axi_wlast
top.u_connector.u_connector.axi_crossbar_inst1.axi_crossbar_wr_inst.s_ifaces[0].reg_inst.m_axi_wuser
top.u_connector.u_connector.axi_crossbar_inst1.axi_crossbar_wr_inst.s_ifaces[0].reg_inst.m_axi_wvalid
top.u_connector.u_connector.axi_crossbar_inst1.axi_crossbar_wr_inst.s_ifaces[0].reg_inst.m_axi_wready
top.u_connector.u_connector.axi_crossbar_inst1.axi_crossbar_wr_inst.s_ifaces[0].reg_inst.m_axi_bid[0]
top.u_connector.u_connector.axi_crossbar_inst1.axi_crossbar_wr_inst.s_ifaces[0].reg_inst.m_axi_bid[1]
top.u_connector.u_connector.axi_crossbar_inst1.axi_crossbar_wr_inst.s_ifaces[0].reg_inst.m_axi_bid[2]
top.u_connector.u_connector.axi_crossbar_inst1.axi_crossbar_wr_inst.s_ifaces[0].reg_inst.m_axi_bid[3]
top.u_connector.u_connector.axi_crossbar_inst1.axi_crossbar_wr_inst.s_ifaces[0].reg_inst.m_axi_bid[4]
top.u_connector.u_connector.axi_crossbar_inst1.axi_crossbar_wr_inst.s_ifaces[0].reg_inst.m_axi_bid[5]
top.u_connector.u_connector.axi_crossbar_inst1.axi_crossbar_wr_inst.s_ifaces[0].reg_inst.m_axi_bid[6]
top.u_connector.u_connector.axi_crossbar_inst1.axi_crossbar_wr_inst.s_ifaces[0].reg_inst.m_axi_bid[7]
top.u_connector.u_connector.axi_crossbar_inst1.axi_crossbar_wr_inst.s_ifaces[0].reg_inst.m_axi_bresp[0]
top.u_connector.u_connector.axi_crossbar_inst1.axi_crossbar_wr_inst.s_ifaces[0].reg_inst.m_axi_bresp[1]
top.u_connector.u_connector.axi_crossbar_inst1.axi_crossbar_wr_inst.s_ifaces[0].reg_inst.m_axi_buser
top.u_connector.u_connector.axi_crossbar_inst1.axi_crossbar_wr_inst.s_ifaces[0].reg_inst.m_axi_bvalid
top.u_connector.u_connector.axi_crossbar_inst2.axi_crossbar_wr_inst.m_axi_awaddr[100]
top.u_connector.u_connector.axi_crossbar_inst2.axi_crossbar_wr_inst.m_axi_awaddr[101]
top.u_connector.u_connector.axi_crossbar_inst2.axi_crossbar_wr_inst.m_axi_awaddr[102]
top.u_connector.u_connector.axi_crossbar_inst2.axi_crossbar_wr_inst.m_axi_awaddr[103]
top.u_connector.u_connector.axi_crossbar_inst2.axi_crossbar_wr_inst.m_axi_awaddr[104]
top.u_connector.u_connector.axi_crossbar_inst2.axi_crossbar_wr_inst.m_axi_awaddr[105]
top.u_connector.u_connector.axi_crossbar_inst2.axi_crossbar_wr_inst.m_axi_awaddr[106]
top.u_connector.u_connector.axi_crossbar_inst2.axi_crossbar_wr_inst.m_axi_awaddr[107]
top.u_connector.u_connector.axi_crossbar_inst2.axi_crossbar_wr_inst.m_axi_awaddr[108]
top.u_connector.u_connector.axi_crossbar_inst2.axi_crossbar_wr_inst.m_axi_awaddr[109]
top.u_connector.u_connector.axi_crossbar_inst2.axi_crossbar_wr_inst.m_axi_awaddr[110]
top.u_connector.u_connector.axi_crossbar_inst2.axi_crossbar_wr_inst.m_axi_awaddr[111]
top.u_connector.u_connector.axi_crossbar_inst2.axi_crossbar_wr_inst.m_axi_awaddr[112]
top.u_connector.u_connector.axi_crossbar_inst2.axi_crossbar_wr_inst.m_axi_awaddr[113]
top.u_connector.u_connector.axi_crossbar_inst2.axi_crossbar_wr_inst.m_axi_awaddr[114]
top.u_connector.u_connector.axi_crossbar_inst2.axi_crossbar_wr_inst.m_axi_awaddr[115]
top.u_connector.u_connector.axi_crossbar_inst2.axi_crossbar_wr_inst.m_axi_awaddr[116]
top.u_connector.u_connector.axi_crossbar_inst2.axi_crossbar_wr_inst.m_axi_awaddr[117]
top.u_connector.u_connector.axi_crossbar_inst2.axi_crossbar_wr_inst.m_axi_awaddr[118]
top.u_connector.u_connector.axi_crossbar_inst2.axi_crossbar_wr_inst.m_axi_awaddr[119]
top.u_connector.u_connector.axi_crossbar_inst2.axi_crossbar_wr_inst.m_axi_awaddr[120]
top.u_connector.u_connector.axi_crossbar_inst2.axi_crossbar_wr_inst.m_axi_awaddr[121]
top.u_connector.u_connector.axi_crossbar_inst2.axi_crossbar_wr_inst.m_axi_awaddr[122]
top.u_connector.u_connector.axi_crossbar_inst2.axi_crossbar_wr_inst.m_axi_awaddr[123]
top.u_connector.u_connector.axi_crossbar_inst2.axi_crossbar_wr_inst.m_axi_awaddr[124]
top.u_connector.u_connector.axi_crossbar_inst2.axi_crossbar_wr_inst.m_axi_awaddr[125]
top.u_connector.u_connector.axi_crossbar_inst2.axi_crossbar_wr_inst.m_axi_awaddr[126]
top.u_connector.u_connector.axi_crossbar_inst2.axi_crossbar_wr_inst.m_axi_awaddr[127]
top.u_connector.u_connector.axi_crossbar_inst2.axi_crossbar_wr_inst.m_axi_awlen[0]
top.u_connector.u_connector.axi_crossbar_inst2.axi_crossbar_wr_inst.m_axi_awlen[1]
top.u_connector.u_connector.axi_crossbar_inst2.axi_crossbar_wr_inst.m_axi_awlen[2]
top.u_connector.u_connector.axi_crossbar_inst2.axi_crossbar_wr_inst.m_axi_awlen[3]
top.u_connector.u_connector.axi_crossbar_inst2.axi_crossbar_wr_inst.m_axi_awlen[4]
top.u_connector.u_connector.axi_crossbar_inst2.axi_crossbar_wr_inst.m_axi_awlen[5]
top.u_connector.u_connector.axi_crossbar_inst2.axi_crossbar_wr_inst.m_axi_awlen[6]
top.u_connector.u_connector.axi_crossbar_inst2.axi_crossbar_wr_inst.m_axi_awlen[7]
top.u_connector.u_connector.axi_crossbar_inst2.axi_crossbar_wr_inst.m_axi_awlen[8]
top.u_connector.u_connector.axi_crossbar_inst2.axi_crossbar_wr_inst.m_axi_awlen[9]
top.u_connector.u_connector.axi_crossbar_inst2.axi_crossbar_wr_inst.m_axi_awlen[10]
top.u_connector.u_connector.axi_crossbar_inst2.axi_crossbar_wr_inst.m_axi_awlen[11]
top.u_connector.u_connector.axi_crossbar_inst2.axi_crossbar_wr_inst.m_axi_awlen[12]
top.u_connector.u_connector.axi_crossbar_inst2.axi_crossbar_wr_inst.m_axi_awlen[13]
top.u_connector.u_connector.axi_crossbar_inst2.axi_crossbar_wr_inst.m_axi_awlen[14]
top.u_connector.u_connector.axi_crossbar_inst2.axi_crossbar_wr_inst.m_axi_awlen[15]
top.u_connector.u_connector.axi_crossbar_inst2.axi_crossbar_wr_inst.m_axi_awlen[16]
top.u_connector.u_connector.axi_crossbar_inst2.axi_crossbar_wr_inst.m_axi_awlen[17]
top.u_connector.u_connector.axi_crossbar_inst2.axi_crossbar_wr_inst.m_axi_awlen[18]
top.u_connector.u_connector.axi_crossbar_inst2.axi_crossbar_wr_inst.m_axi_awlen[19]
top.u_connector.u_connector.axi_crossbar_inst2.axi_crossbar_wr_inst.m_axi_awlen[20]
top.u_connector.u_connector.axi_crossbar_inst2.axi_crossbar_wr_inst.m_axi_awlen[21]
top.u_connector.u_connector.axi_crossbar_inst2.axi_crossbar_wr_inst.m_axi_awlen[22]
top.u_connector.u_connector.axi_crossbar_inst2.axi_crossbar_wr_inst.m_axi_awlen[23]
top.u_connector.u_connector.axi_crossbar_inst2.axi_crossbar_wr_inst.m_axi_awlen[24]
top.u_connector.u_connector.axi_crossbar_inst2.axi_crossbar_wr_inst.m_axi_awlen[25]
top.u_connector.u_connector.axi_crossbar_inst2.axi_crossbar_wr_inst.m_axi_awlen[26]
top.u_connector.u_connector.axi_crossbar_inst2.axi_crossbar_wr_inst.m_axi_awlen[27]
top.u_connector.u_connector.axi_crossbar_inst2.axi_crossbar_wr_inst.m_axi_awlen[28]
top.u_connector.u_connector.axi_crossbar_inst2.axi_crossbar_wr_inst.m_axi_awlen[29]
top.u_connector.u_connector.axi_crossbar_inst2.axi_crossbar_wr_inst.m_axi_awlen[30]
top.u_connector.u_connector.axi_crossbar_inst2.axi_crossbar_wr_inst.m_axi_awlen[31]
top.u_connector.u_connector.axi_crossbar_inst2.axi_crossbar_wr_inst.m_axi_awsize[0]
top.u_connector.u_connector.axi_crossbar_inst2.axi_crossbar_wr_inst.m_axi_awsize[1]
top.u_connector.u_connector.axi_crossbar_inst2.axi_crossbar_wr_inst.m_axi_awsize[2]
top.u_connector.u_connector.axi_crossbar_inst2.axi_crossbar_wr_inst.m_axi_awsize[3]
top.u_connector.u_connector.axi_crossbar_inst2.axi_crossbar_wr_inst.m_axi_awsize[4]
top.u_connector.u_connector.axi_crossbar_inst2.axi_crossbar_wr_inst.m_axi_awsize[5]
top.u_connector.u_connector.u_axi_tmr_voter_ds.u_axi_tmr_voter_ds_1m3s_inst0.s02_axi_wdata[43]
top.u_connector.u_connector.u_axi_tmr_voter_ds.u_axi_tmr_voter_ds_1m3s_inst0.s02_axi_wdata[44]
top.u_connector.u_connector.u_axi_tmr_voter_ds.u_axi_tmr_voter_ds_1m3s_inst3.genblk11[29].u_wdata.d1
top.u_connector.u_connector.u_axi_tmr_voter_ds.u_axi_tmr_voter_ds_1m3s_inst3.genblk11[29].u_wdata.d2
top.u_connector.u_connector.s00_vd0_axi_wdata[42]
top.u_connector.u_connector.s00_vd0_axi_wdata[43]
top.u_connector.u_connector.s00_vd0_axi_wdata[44]
top.u_connector.u_connector.u_axi_tmr_voter_us.axi_tmr_voter_us_3m1s_inst1.m_axi_rresp_err_flag[1]
top.u_connector.u_connector.u_axi_tmr_voter_us.axi_tmr_voter_us_3m1s_inst1.m_axi_rresp_err_d0[0]
top.u_connector.u_connector.u_axi_tmr_voter_us.axi_tmr_voter_us_3m1s_inst1.m_axi_rresp_err_d0[1]